!ATF-35143
!S-PARAMETERS at Vds=2V  Id=30mA.   LAST UPDATED 06-3-99

# ghz s ma r 50 

0.50	0.99	-21	8.10	163	0.021	77	0.49	-16
0.75	0.96	-32	7.96	154	0.031	71	0.47	-22
1.00	0.94	-42	7.73	146	0.040	65	0.46	-29
1.50	0.88	-61	7.22	130	0.056	55	0.43	-43
1.75	0.85	-70	6.96	123	0.063	50	0.41	-49
2.00	0.82	-79	6.69	116	0.069	46	0.39	-55
2.50	0.76	-95	6.17	103	0.080	37	0.36	-67
3.00	0.70	-111	5.69	91	0.089	29	0.34	-78
4.00	0.61	-144	4.86	68	0.102	15	0.28	-97
5.00	0.56	-175	4.20	47	0.112	2	0.23	-117
6.00	0.55	157	3.68	28	0.119	-11	0.17	-140
7.00	0.55	129	3.24	9	0.124	-24	0.13	-169
8.00	0.56	104	2.88	-9	0.129	-35	0.11	155
9.00	0.60	81	2.56	-26	0.132	-46	0.11	112
10.00	0.64	62	2.30	-43	0.136	-57	0.13	77
11.00	0.68	44	2.06	-61	0.138	-69	0.18	52
12.00	0.72	25	1.84	-78	0.139	-81	0.24	33
13.00	0.74	7	1.61	-95	0.136	-93	0.31	18
14.00	0.77	-7	1.41	-110	0.131	-103	0.38	0
15.00	0.82	-17	1.25	-125	0.128	-113	0.43	-15
16.00	0.83	-29	1.11	-141	0.125	-124	0.49	-29
17.00	0.85	-41	0.98	-155	0.124	-134	0.54	-39
18.00	0.87	-57	0.87	-170	0.118	-145	0.60	-50

!FREQ   Fopt    GAMMA OPT       RN/Zo
!GHZ     dB     MAG     ANG      -

0.5	0.11	0.87	3	0.18
0.9	0.15	0.81	12	0.17
1.0	0.16	0.80	15	0.16
1.5	0.22	0.73	26	0.15
1.8	0.25	0.69	33	0.15
2.0	0.27	0.66	38	0.14
2.5	0.33	0.60	51	0.13
3.0	0.39	0.54	64	0.12
4.0	0.52	0.45	94	0.10
5.0	0.64	0.39	127	0.07
6.0	0.77	0.34	161	0.05
7.0	0.90	0.33	-165	0.06
8.0	1.02	0.33	-130	0.10
9.0	1.15	0.36	-98	0.18
10.0	1.28	0.40	-67	0.30

