freq	S11	S22	Stability	Gain	Noise
1.5	-1.44145348130591660E0	-4.72074058912739680E0	7.02434061557315200E-1	1.17963421037663910E1	1.36140445522902080E0
1.51	-1.36958839645236270E0	-4.59856135233246200E0	6.56902027576486610E-1	1.18980175541347320E1	1.32845305970704700E0
1.52	-1.30998802193527200E0	-4.48541678660554230E0	6.21737688937878290E-1	1.19897519800559000E1	1.29888726027448300E0
1.53	-1.26121095671467450E0	-4.38083494633587730E0	5.95200005403998400E-1	1.20726324932560750E1	1.27234178719294140E0
1.54	-1.22200408273920540E0	-4.28441697678414800E0	5.75845877985068900E-1	1.21475436643548670E1	1.24852746156533810E0
1.55	-1.19124368014351160E0	-4.19570888723102970E0	5.62465738910777540E-1	1.22154402436841680E1	1.22713057875966960E0
1.56	-1.16796863473254150E0	-4.11434840381970090E0	5.54060612106315280E-1	1.22770190177272640E1	1.20792522065274240E0
1.57	-1.15131213997054680E0	-4.03991691945827030E0	5.49788144297789390E-1	1.23331199887835720E1	1.19064020751452460E0
1.58	-1.14054642428522430E0	-3.97209456936906150E0	5.48956488097125030E-1	1.23842663130312110E1	1.17510465591373880E0
1.59	-1.13500983191621210E0	-3.91050952053234370E0	5.50977009841178500E-1	1.24311899951514170E1	1.16108680173645370E0
1.6	-1.13415346744639710E0	-3.85487534126709170E0	5.55368467858305430E-1	1.24743013683435300E1	1.14845085877968840E0
1.61	-1.13748064986403440E0	-3.80487791731425060E0	5.61719075918885120E-1	1.25142014103623910E1	1.13700936892543810E0
1.62	-1.14457987616614990E0	-3.76026248377389030E0	5.69692573852643850E-1	1.25512236002191950E1	1.12665122312714570E0
1.63	-1.15508284564289940E0	-3.72076769859639530E0	5.78999945464933670E-1	1.25858524570910910E1	1.11722629924779040E0
1.64	-1.16868404860506780E0	-3.68617125095369990E0	5.89405149322043980E-1	1.26183664590741130E1	1.10864201739388800E0
1.65	-1.18511467701242260E0	-3.65625861572876600E0	6.00704928475723140E-1	1.26491459216074280E1	1.10078024052158780E0
1.66	-1.20415121349949760E0	-3.63084011279316290E0	6.12732698299361370E-1	1.26784299888705300E1	1.09356208998266900E0
1.67	-1.22560166564621990E0	-3.60974148102023440E0	6.25345541744742130E-1	1.27065064876605540E1	1.08689690851499530E0
1.68	-1.24930623677697210E0	-3.59280521516612430E0	6.38424914629566760E-1	1.27335919839568050E1	1.08071453925226550E0
1.69	-1.27513219736205460E0	-3.57989104014255140E0	6.51870770973958620E-1	1.27598907236431170E1	1.07494844750337810E0
1.7	-1.30297037851090410E0	-3.57087354041388050E0	6.65598023444293930E-1	1.27856056051474960E1	1.06953451028622370E0
1.71	-1.33273371154235450E0	-3.56564030553612100E0	6.79537467167784830E-1	1.28108648376824300E1	1.06442768534082430E0
1.72	-1.36435360053671490E0	-3.56409790610022000E0	6.93626867298278070E-1	1.28358697028527800E1	1.05956576508393720E0
1.73	-1.39777817777264170E0	-3.56615613154178050E0	7.07819515192541890E-1	1.28606794619414690E1	1.05492311797384100E0
1.74	-1.43297241385039830E0	-3.57175386628342070E0	7.22068774237529180E-1	1.28854986990110640E1	1.05043727398859850E0
1.75	-1.46991133825907670E0	-3.58081758791274970E0	7.36344618155028210E-1	1.29103227873444840E1	1.04610043266299770E0
1.76	-1.50858891284455420E0	-3.59331945060946010E0	7.50610875647413070E-1	1.29353658154736210E1	1.04184784469502080E0
1.77	-1.54900104985619840E0	-3.60919761588543110E0	7.64850367597202660E-1	1.29605630110732810E1	1.03768899021898850E0
1.78	-1.59116709624984700E0	-3.62845877891989850E0	7.79033398808758900E-1	1.29861431371397920E1	1.03355418645344370E0
1.79	-1.63510019731768290E0	-3.65104860890073190E0	7.93153270882328880E-1	1.30119856250291100E1	1.02947048426017100E0
1.8	-1.68084069554410110E0	-3.67700478335049970E0	8.07184733342981710E-1	1.30383184152940790E1	1.02536574300268150E0
1.81	-1.72841705932536980E0	-3.70628951588014790E0	8.21125614126276560E-1	1.30650228771522900E1	1.02126671460051790E0
1.82	-1.77788702338613770E0	-3.73895841924113540E0	8.34957227436353660E-1	1.30922740591280530E1	1.01711507931494240E0
1.83	-1.82929691131524620E0	-3.77499672459457970E0	8.48680210568642050E-1	1.31199727406945830E1	1.01293398525296880E0
1.84	-1.88271736378669850E0	-3.81447354495737920E0	8.62280546039786170E-1	1.31482452093214760E1	1.00867632027447310E0
1.85	-1.93821099774556420E0	-3.85739910648302690E0	8.75759521548556560E-1	1.31770170477543780E1	1.00435802245186620E0
1.86	-1.99586056648683160E0	-3.90385285875376460E0	8.89107673391576010E-1	1.32063651513630690E1	9.99944920481854990E-1
1.87	-2.05574688710939400E0	-3.95387354368072330E0	9.02326551645768940E-1	1.32362379682877050E1	9.95446504594970530E-1
1.88	-2.11796316938268440E0	-4.00754743479716420E0	9.15410644862785720E-1	1.32666657062781450E1	9.90841127297301050E-1
1.89	-2.18260677684706960E0	-4.06494439702705180E0	9.28359934179696110E-1	1.32976232160501030E1	9.86128065185306820E-1
1.9	-2.24978150677212250E0	-4.12615421221802590E0	9.41173038834127950E-1	1.33290945913343690E1	9.81299648589787310E-1
1.91	-2.31960414916130380E0	-4.19128329867197810E0	9.53848354013512890E-1	1.33610789768909520E1	9.76345647391308270E-1
1.92	-2.39219008426537050E0	-4.26042155067856320E0	9.66388996706565000E-1	1.33935146901628240E1	9.71273991916329930E-1
1.93	-2.46767218971392000E0	-4.33371563849145680E0	9.78789514772440760E-1	1.34264298599973600E1	9.66059415949418470E-1
1.94	-2.54617895529082270E0	-4.41125133707044540E0	9.91057943370269710E-1	1.34597181659276080E1	9.60727178627453070E-1
1.95	-2.62786073395851630E0	-4.49322273208677370E0	1.00318474207560060E0	1.34934341279589300E1	9.55236549412583890E-1
1.96	-2.71286440004548620E0	-4.57970764534132350E0	1.01518431223502100E0	1.35274250762614810E1	9.49634426599338610E-1
1.97	-2.80135250854216490E0	-4.67095400649355860E0	1.02704059189579390E0	1.35617762387408350E1	9.43858163953127690E-1
1.98	-2.89349889421321290E0	-4.76702734360427540E0	1.03877624738906000E0	1.35962872690931300E1	9.37981803823795350E-1
1.99	-2.98947013777482380E0	-4.86823738583598060E0	1.05036611479204270E0	1.36310767118087410E1	9.31913793566089590E-1
2	-3.08947561646785780E0	-4.97462832629201750E0	1.06184287347313690E0	1.36658946470381300E1	9.25761012513848060E-1
2.01	-3.19368290495919190E0	-5.08656802503653440E0	1.07317379338553990E0	1.37008763953601110E1	9.19408686746460190E-1
2.02	-3.30234727041791580E0	-5.20412653848586700E0	1.08439538189546150E0	1.37357726497585730E1	9.12973139247158190E-1
2.03	-3.41563382333345760E0	-5.32768420621371600E0	1.09547429601463910E0	1.37706848807290450E1	9.06342090217858680E-1
2.04	-3.53384247805601600E0	-5.45735598038670760E0	1.10644590731157440E0	1.38053895411625580E1	8.99626106241295180E-1
2.05	-3.65714152323656410E0	-5.59353426036636400E0	1.11727833514002680E0	1.38399497026490370E1	8.92720860606557490E-1
2.06	-3.78588102687303160E0	-5.73638779394929270E0	1.12800624989565490E0	1.38741615212714780E1	8.85732203422951870E-1
2.07	-3.92023570826037960E0	-5.88631831316830740E0	1.13859955758247830E0	1.39080538315416600E1	8.78564853908749120E-1
2.08	-4.06060325015143060E0	-6.04355931657197410E0	1.14908985030863640E0	1.39414479601425740E1	8.71313358606343160E-1
2.09	-4.20717926606928840E0	-6.20851824033149760E0	1.15945174844531620E0	1.39743339992906980E1	8.63899775839105110E-1
2.1	-4.36039557460577050E0	-6.38150736120736360E0	1.16970980859006660E0	1.40065660355242080E1	8.56396189691336930E-1
2.11	-4.52050383722719220E0	-6.56293401344179110E0	1.17984923736195340E0	1.40380851683635850E1	8.48758731366279660E-1
2.12	-4.68792912881488370E0	-6.75321006296010930E0	1.18987939761010630E0	1.40687954046012710E1	8.41013669401076850E-1
2.13	-4.86307122371908120E0	-6.95273354107076540E0	1.19980980300488890E0	1.40985614458975550E1	8.33190238022805830E-1
2.14	-5.04622166161928920E0	-7.16204518214957810E0	1.20961438137527110E0	1.41273810986054580E1	8.25211239160516820E-1
2.15	-5.23821509457819000E0	-7.38153124341937430E0	1.21936541218002040E0	1.41549634612822770E1	8.17287033585336790E-1
2.16	-5.43873243775510410E0	-7.61187573446656710E0	1.22893651276364220E0	1.41815366552798470E1	8.09055594171844030E-1
2.17	-5.65019457535799850E0	-7.85359195447192700E0	1.23859389202685290E0	1.42064206308302570E1	8.01270565406959530E-1
2.18	-5.86888113193525030E0	-8.10702092376369170E0	1.24781231121352530E0	1.42305474885850130E1	7.92470056978097580E-1
2.19	-6.10371890291881590E0	-8.37393309570871660E0	1.25754126373318130E0	1.42520904595443710E1	7.85275323631525520E-1
2.2	-6.34029989057295750E0	-8.65266411523223410E0	1.26615715307537190E0	1.42739362065943330E1	7.75229681541310090E-1
2.21	-6.59573703647948580E0	-8.94311502092930690E0	1.27578501321995460E0	1.42907074837637580E1	7.68329389682917620E-1
2.22	-6.86029992197026140E0	-9.25417251006945920E0	1.28431944732202140E0	1.43099688848927250E1	7.58359363472410660E-1
2.23	-7.14010244160576060E0	-9.57755935122409950E0	1.29334744709280550E0	1.43248371454878300E1	7.50126889149501520E-1
2.24	-7.43269403077466250E0	-9.91943974363430140E0	1.30196632723869990E0	1.43390517819106540E1	7.40919359888326220E-1
2.25	-7.74104595429644160E0	-1.02782506530720540E1	1.31067437508495700E0	1.43505024375510510E1	7.32225731302521690E-1
2.26	-8.06496780134974680E0	-1.06565167934951250E1	1.31921337902302520E0	1.43601506565856090E1	7.23286937435717900E-1
2.27	-8.40617345331989800E0	-1.10549439294778520E1	1.32771294007169160E0	1.43674186034693000E1	7.14488271942665420E-1
2.28	-8.76552280255022960E0	-1.14754055849212570E1	1.33610235146733510E0	1.43725263610097990E1	7.05628149518412240E-1
2.29	-9.14444273109493540E0	-1.19193866844464340E1	1.34441146560694810E0	1.43752907273239020E1	6.96800447141593440E-1
2.3	-9.54441069063156530E0	-1.23888555594006090E1	1.35263353602204740E0	1.43756939917622020E1	6.87991275688661470E-1
2.31	-9.96696002776894470E0	-1.28859592398946380E1	1.36076051553824430E0	1.43737134167842220E1	6.79184997075213650E-1
2.32	-1.04140754278369290E1	-1.34130649739185110E1	1.36881221477904820E0	1.43692371571055940E1	6.70445488848832480E-1
2.33	-1.08876111640150430E1	-1.39731093319092370E1	1.37676238781405050E0	1.43623294742640950E1	6.61705940122274680E-1
2.34	-1.13900819527669840E1	-1.45691413574870080E1	1.38464314035525330E0	1.43528397963847730E1	6.53066457363723350E-1
2.35	-1.19238593284112240E1	-1.52051879669327180E1	1.39242050990675950E0	1.43408799778456330E1	6.44438490887903550E-1
2.36	-1.24920753968715430E1	-1.58853679774596260E1	1.40013312599066130E0	1.43262847279540420E1	6.35941346032236150E-1
2.37	-1.30977268815935170E1	-1.66152503251585170E1	1.40774197242320740E0	1.43092007259657940E1	6.27473519683560800E-1
2.38	-1.37445806553387500E1	-1.74005658202147510E1	1.41528895594299000E0	1.42894617638916670E1	6.19164329577861850E-1
2.39	-1.44362099938525870E1	-1.82491225514875180E1	1.42273267874871200E0	1.42672381504180310E1	6.10906496758732050E-1
2.4	-1.51766885802777840E1	-1.91689886780935950E1	1.43011669749131000E0	1.42423711091116820E1	6.02834390651649520E-1
2.41	-1.59692671740551310E1	-2.01708474158876470E1	1.43739842035612230E0	1.42150458979016730E1	5.94838799626843870E-1
2.42	-1.68164525243378300E1	-2.12652428780535450E1	1.44462270319542490E0	1.41851131162564450E1	5.87057962894210220E-1
2.43	-1.77173176767579530E1	-2.24643329970221340E1	1.45174949001834050E0	1.41527564446750740E1	5.79391358441186100E-1
2.44	-1.86653103264298960E1	-2.37758795320642990E1	1.45881311918057040E0	1.41178807889874140E1	5.71947912289862080E-1
2.45	-1.96414302612034540E1	-2.51970160455998120E1	1.46578681905476340E0	1.40806250335532050E1	5.64665870446859230E-1
2.46	-2.06060739408063800E1	-2.66905582187887090E1	1.47269381358591240E0	1.40409475830914100E1	5.57623313336853420E-1
2.47	-2.14862310651988550E1	-2.81409464165737510E1	1.47951698694938140E0	1.39989563237024140E1	5.50786827931624860E-1
2.48	-2.21718818950740240E1	-2.92932135691333340E1	1.48627102411499680E0	1.39546493988390300E1	5.44211290606343120E-1
2.49	-2.25365917659037640E1	-2.97932977643982830E1	1.49294635273394220E0	1.39081113548771550E1	5.37885341773360710E-1
2.5	-2.24991936536207680E1	-2.94758195216008860E1	1.49955084687345130E0	1.38593694596247750E1	5.31845720790037290E-1
2.51	-2.20781194249374300E1	-2.85606410746192200E1	1.50608102340742200E0	1.38084896731260250E1	5.26098800247237100E-1
2.52	-2.13783869925633270E1	-2.73993092050736480E1	1.51253868850097730E0	1.37555213823527160E1	5.20665879256820570E-1
2.53	-2.05254995907246580E1	-2.62223119327348500E1	1.51892537737638330E0	1.37005151047026150E1	5.15567757200970340E-1
2.54	-1.96169182451931020E1	-2.51286000569184820E1	1.52523908045867800E0	1.36435306348877860E1	5.10816267348762130E-1
2.55	-1.87127022834529130E1	-2.41478851333076920E1	1.53148554604711770E0	1.35846051505195060E1	5.06444148322950930E-1
2.56	-1.78435408653941360E1	-2.32805917764970440E1	1.53765840290395330E0	1.35238069517071670E1	5.02452949191163430E-1
2.57	-1.70232836605374920E1	-2.25182186973543260E1	1.54376682321605910E0	1.34611614810248950E1	4.98884987554405690E-1
2.58	-1.62554910199356970E1	-2.18491202350304990E1	1.54980152393541610E0	1.33967375295039370E1	4.95735414721712960E-1
2.59	-1.55397328134302490E1	-2.12630315506240700E1	1.55577514699099910E0	1.33305477023689310E1	4.93055803601756000E-1
2.6	-1.48725690077972450E1	-2.07500596120922420E1	1.56167489157057360E0	1.32626605503927710E1	4.90833846156279030E-1
2.61	-1.42505303995351860E1	-2.03026854399871450E1	1.56751588043201860E0	1.31930779008535780E1	4.89127672381935420E-1
2.62	-1.36691725570589510E1	-1.99137959964817530E1	1.57328304835700110E0	1.31218618159045760E1	4.87920758469282760E-1
2.63	-1.31250051938412570E1	-1.95783284032347570E1	1.57899413501446010E0	1.30490022288598300E1	4.87277802999304740E-1
2.64	-1.26140713582372950E1	-1.92913166834926630E1	1.58463316579283050E0	1.29745505960452000E1	4.87181530422963060E-1
2.65	-1.21333997095977590E1	-1.90493226286658770E1	1.59021542677527770E0	1.28984930278438800E1	4.87690743894733460E-1
2.66	-1.16798473234679710E1	-1.88489845111704880E1	1.59572895380051930E0	1.28208607726185760E1	4.88799287107383230E-1
2.67	-1.12510001105194380E1	-1.86879491249909570E1	1.60118530143448460E0	1.27416375627828570E1	4.90557208378782580E-1
2.68	-1.08444074619031630E1	-1.85639471185061460E1	1.60657608826196020E0	1.26608351222612250E1	4.92967977981874660E-1
2.69	-1.04581197531815540E1	-1.84753549731877100E1	1.61190934818082350E0	1.25784315331060600E1	4.96073661793900200E-1
2.7	-1.00902432050079870E1	-1.84206544589370940E1	1.61718006210636790E0	1.24944206476160490E1	4.99886488284614480E-1
2.71	-9.73921256703482640E0	-1.83987090726264450E1	1.62239281375697830E0	1.24087757042465640E1	5.04440940342821250E-1
2.72	-9.40355558304936600E0	-1.84084709534972220E1	1.62754575406384230E0	1.23214729375435230E1	5.09757161300743360E-1
2.73	-9.08199743414805560E0	-1.84490569446975880E1	1.63264130183794910E0	1.22324750615668850E1	5.15865233792700990E-1
2.74	-8.77339415528548190E0	-1.85196222672403230E1	1.63768041120041310E0	1.21417427340435240E1	5.22792047882781660E-1
2.75	-8.47670804956397280E0	-1.86192653944826030E1	1.64266172896597330E0	1.20492346374280120E1	5.30559668874170850E-1
2.76	-8.19104868444242480E0	-1.87469914625665330E1	1.64758880297324150E0	1.19548970970638590E1	5.39200940503319970E-1
2.77	-7.91556421004814940E0	-1.89014658567613060E1	1.65245868283684680E0	1.18586783798674910E1	5.48735038731008460E-1
2.78	-7.64956301490612670E0	-1.90809871060662430E1	1.65727786055420420E0	1.17605104384085140E1	5.59201293389761120E-1
2.79	-7.39234661177278870E0	-1.92830753562701610E1	1.66203998754615250E0	1.16603383081181460E1	5.70611850457324010E-1
2.8	-7.14337987921080850E0	-1.95043820444142040E1	1.66675374060752720E0	1.15580827505920110E1	5.83010577539972270E-1
2.81	-6.90209294524186310E0	-1.97400992761059020E1	1.67141087617790430E0	1.14536835355466660E1	5.96405967539500810E-1
2.82	-6.66807870999374510E0	-1.99837548547046980E1	1.67602246468157380E0	1.13470521822540430E1	6.10846565197132120E-1
2.83	-6.44087017589442650E0	-2.02265036933979840E1	1.68057796700337820E0	1.12381254749918360E1	6.26336346378452460E-1
2.84	-6.22015918631123550E0	-2.04569724773905160E1	1.68509183061115490E0	1.11268033311838080E1	6.42930771312201980E-1
2.85	-6.00557509416652290E0	-2.06608501538922160E1	1.68955148540493450E0	1.10130250496360490E1	6.60629278722600870E-1
2.86	-5.79687670667342130E0	-2.08214337216791630E1	1.69396866284034870E0	1.08966934887263260E1	6.79481086954894490E-1
2.87	-5.59378518075106170E0	-2.09205616859115380E1	1.69833474832146550E0	1.07777410480579160E1	6.99493715971868820E-1
2.88	-5.39611379009556020E0	-2.09407979509263200E1	1.70266042316202640E0	1.06560716873917660E1	7.20713848286939740E-1
2.89	-5.20365432538063550E0	-2.08680960881493990E1	1.70693856380225140E0	1.05316194304104880E1	7.43151374275961450E-1
2.9	-5.01625811787191190E0	-2.06946417602412810E1	1.71117580170384140E0	1.04042976088407600E1	7.66844168138791280E-1
2.91	-4.83377723420348550E0	-2.04205359902362420E1	1.71536845044209920E0	1.02740409815240710E1	7.91808411695063090E-1
2.92	-4.65610056743211230E0	-2.00537530141871700E1	1.71952140430378450E0	1.01407730643946060E1	8.18077560855076590E-1
2.93	-4.48312281754759300E0	-1.96082829530911740E1	1.72363334550530770E0	1.00044332729308900E1	8.45671738321640020E-1
2.94	-4.31475795704068600E0	-1.91013312448005520E1	1.72770704192464470E0	9.86495727841355400E0	8.74619394442570910E-1
2.95	-4.15093297317514500E0	-1.85505819191106310E1	1.73174373660305480E0	9.72229149423252710E0	9.04944813290687300E-1
2.96	-3.99158160261004720E0	-1.79721996367892300E1	1.73574285048314030E0	9.57639133704512520E0	9.36668295418814090E-1
2.97	-3.83665221635670450E0	-1.73797891337339890E1	1.73970815244241290E0	9.42721178157228930E0	9.69818249280068480E-1
2.98	-3.68609307220463080E0	-1.67840952085290880E1	1.74363726534535760E0	9.27472756882868940E0	1.00440980047836080E0
2.99	-3.53986561320526860E0	-1.61931978861621540E1	1.74753667665988370E0	9.11890358430810720E0	1.04047576163786840E0
3	-3.39792472538066500E0	-1.56129062363385110E1	1.75140146076212950E0	8.95973677830124340E0	1.07802446125576030E0
3.01	-3.26023712105842070E0	-1.50472285272386500E1	1.75524128855765430E0	8.79720082884829680E0	1.11709435666690780E0
3.02	-3.12676092597341570E0	-1.44987896738753500E1	1.75904785456480340E0	8.63132017934368890E0	1.15768451067002180E0
3.03	-2.99746112868968060E0	-1.39691890531179540E1	1.76283278257882840E0	8.46207940785640920E0	1.19983678668337590E0
3.04	-2.87229666573545830E0	-1.34592873652556030E1	1.76658619237356860E0	8.28952819139981220E0	1.24354420562526080E0
3.05	-2.75122982001016950E0	-1.29694131975726920E1	1.77032411583786330E0	8.11365848118907000E0	1.28885656027223220E0
3.06	-2.63421344029918900E0	-1.24995250584936040E1	1.77403376388470280E0	7.93454517991115620E0	1.33575863899944740E0
3.07	-2.52119923574925590E0	-1.20493222584611950E1	1.77772868254080700E0	7.75219940287607300E0	1.38429452863273480E0
3.08	-2.41213697428280630E0	-1.16183443012563140E1	1.78140008575241370E0	7.56670708168125650E0	1.43445465664822660E0
3.09	-2.30697046821439010E0	-1.12060133097067750E1	1.78506031338773160E0	7.37809916184917110E0	1.48627846928909470E0
3.1	-2.20564093519257560E0	-1.08116903080433160E1	1.78870238465152600E0	7.18647213657140330E0	1.53975852271901290E0
3.11	-2.10808299792522160E0	-1.04346937695729000E1	1.79233535588768360E0	6.99187971961383600E0	1.59492525574243340E0
3.12	-2.01422952114468810E0	-1.00743315609772430E1	1.79595551134209000E0	6.79442324477745350E0	1.65177654517182180E0
3.13	-1.92400640886641440E0	-9.72990513124935140E0	1.79956966095597590E0	6.59417430918657030E0	1.71033599477164320E0
3.14	-1.83733849112313630E0	-9.40072938117505250E0	1.80317700099857010E0	6.39123721347673350E0	1.77060627915366870E0
3.15	-1.75414529620688860E0	-9.08613177284567190E0	1.80678171565116160E0	6.18570321881365710E0	1.83260214858592030E0
3.16	-1.67434396049403840E0	-8.78546079370020290E0	1.81038621183080410E0	5.97767477235780920E0	1.89633236181912830E0
3.17	-1.59784829286852690E0	-8.49808606065629140E0	1.81399160218491180E0	5.76726078175489750E0	1.96180191943103320E0
3.18	-1.52456917945290240E0	-8.22340108841372340E0	1.81760386259715870E0	5.55455775586093740E0	2.02902689321161840E0
