#  HZ   S   DB   R     50.0 
! Rohde & Schwarz ZVL 
! 
! 
! 
 9.000000000000000E3     2.691309693287692E-1  -1.117750180557286  -5.133161335354872E1  -2.682727049675716E1  -5.734298604269628E1   1.127942261909471E2   3.031432060970475E-1  -3.088569546833640  
 3.008995500000000E6     3.224220769242141E-2  -2.385813603235305  -3.458843298799555E1  -8.911724165065363E1  -6.040677973801494E1   9.689209788763263E1   1.971423964826919E-1  -2.224925263614119  
 6.008991000000000E6     4.169709463387515E-2  -1.911176752290371  -2.877011441299110E1  -9.046870433223745E1  -8.156902732700893E1   1.145148022765461E2  -2.838703173487813E-2  -2.919577470770959  
 9.008986500000000E6     6.238966392158354E-2  -2.379339621429568  -2.541095830690069E1  -9.306314366820388E1  -8.281045203838819E1  -1.517747064848645E2   6.065868912486013E-2  -4.495513695882941  
 1.200898200000000E7     5.704486493062914E-2  -4.321428009540994  -2.284947608382115E1  -9.402977195873818E1  -7.710415907363034E1  -5.732451121118350E1  -1.433074756225205E-2  -6.555656682642296  
 1.500897750000000E7     5.288453336691079E-2  -4.984489953083217  -2.105828621724737E1  -9.464743052996739E1  -8.397014720546927E1  -1.582898944237224E2  -4.903902245095526E-2  -7.981795974678508  
 1.800897300000000E7     2.619049588683309E-2  -5.683118182266219  -1.948407629719645E1  -9.657236171038827E1  -8.162121059874745E1   1.025145734387207E2  -1.544117892655931E-1  -8.585732608501370  
 2.100896850000000E7     9.749931069649176E-4  -7.024208892547166  -1.809475211974648E1  -9.796118559512730E1  -7.141139445315733E1  -9.876320551507006E1  -1.214545522030487E-1  -1.018746332721990E1  
 2.400896400000000E7    -1.939839492194060E-2  -7.846460595076304  -1.694869012766849E1  -9.857662041286508E1  -8.928949109463892E1  -1.329519879357331E2  -1.708443658337754E-1  -1.168446327477709E1  
 2.700895950000000E7    -2.955328470332889E-2  -9.002335528531962  -1.592343021413646E1  -9.944472532758969E1  -8.060172417613650E1  -8.785835950170660E1  -1.729029221434342E-1  -1.295667117480689E1  
 3.000895500000000E7    -8.017229200630807E-2  -9.981483862121458  -1.500122662625024E1  -1.009966473700095E2  -8.034795406990817E1   6.785961522320075E1  -1.574085059916766E-1  -1.428098314228161E1  
 3.300895050000000E7    -5.188242535608818E-2  -1.118094631121994E1  -1.418045999326631E1  -1.019709429503508E2  -7.775593460654717E1  -6.010153970281629E1  -2.442607310165146E-1  -1.625959324512370E1  
 3.600894600000000E7    -3.314775341520457E-2  -1.217927230828427E1  -1.336486119780734E1  -1.030453682235490E2  -8.647733025288117E1  -1.177091806604635E2  -2.866527113895603E-1  -1.715965724115041E1  
 3.900894150000000E7    -1.972884760026418E-2  -1.282323548831981E1  -1.265820808121872E1  -1.037676717205879E2  -8.355775011957213E1  -1.559963711391395E2  -2.985693209412051E-1  -1.904437583483061E1  
 4.200893700000000E7    -1.054537750928285E-2  -1.391841522062492E1  -1.203579834097265E1  -1.050511069171961E2  -8.746248200864859E1  -3.070692983146236E1  -3.669506218095180E-1  -2.038497414358897E1  
 4.500893250000000E7    -3.174625076087980E-2  -1.498130674253295E1  -1.148433913110623E1  -1.065522772129155E2  -7.819863228570745E1   1.373831153418124E2  -3.862664105947524E-1  -2.060663984990980E1  
 4.800892800000000E7    -4.076009340529961E-3  -1.561516566079205E1  -1.082163541054471E1  -1.070349724630673E2  -7.812196130407776E1   9.781588721465079E1  -4.181958379128240E-1  -2.256360990791924E1  
 5.100892350000000E7     2.035662328207839E-2  -1.665607997014940E1  -1.031281520342389E1  -1.079851856054852E2  -9.225957249771014E1   1.446409297570951E2  -4.561795281853088E-1  -2.388601052912805E1  
 5.400891900000000E7    -6.250491081720572E-2  -1.772624348448288E1  -9.876514899613754  -1.089676466449820E2  -7.973412253300832E1   1.107515308983472E2  -5.930194199212624E-1  -2.561267651979124E1  
 5.700891450000000E7    -4.990297977530309E-2  -1.920271412038998E1  -9.354756685647480  -1.105950502522100E2  -7.747789845396341E1   1.620899388185895E2  -6.210080686143095E-1  -2.747687480802708E1  
 6.000891000000000E7    -1.265358542872070E-2  -2.011697516159904E1  -8.906850462142243  -1.120210089026426E2  -8.245017541201649E1   1.094244618692630E2  -7.518610038125247E-1  -2.869228804707026E1  
 6.300890550000000E7    -5.172022230994833E-4  -2.144199181918392E1  -8.489819531341951  -1.132588080006034E2  -7.773142755439780E1   1.364286581702582E2  -8.305578296547075E-1  -2.994390546207984E1  
 6.600890100000000E7    -4.419779677448259E-2  -2.223055691475214E1  -8.165086432728160  -1.141944816857199E2  -7.352482279416725E1   1.342594361239835E2  -9.391588770640071E-1  -3.087619601883809E1  
 6.900889650000000E7    -2.149449935959741E-2  -2.312932215508165E1  -7.747689995331838  -1.155093310624298E2  -7.441492387257031E1   1.329243970607184E2  -9.882034770845825E-1  -3.251389372984502E1  
 7.200889200000000E7     4.591380341245419E-2  -2.335271195914537E1  -7.355954427603044  -1.156530365406373E2  -7.444740299059416E1   1.149356775249468E2  -1.034548186450331  -3.396559531068963E1  
 7.500888750000000E7    -2.227061930116127E-2  -2.512915877296322E1  -7.063697599326885  -1.175124638534381E2  -7.423330074996416E1   1.424942674012934E2  -1.158957719033915  -3.558661166422305E1  
 7.800888300000000E7    -1.336698392346722E-4  -2.562233710686484E1  -6.721667301656657  -1.191881889867798E2  -7.202334046471346E1   1.580230308163714E2  -1.225969667157624  -3.663287864130250E1  
 8.100887850000000E7     3.721988150728108E-2  -2.712204985576874E1  -6.366612878623503  -1.196302042756806E2  -7.231431483762469E1   1.234559470832164E2  -1.290161529789771  -3.783792009820336E1  
 8.400887400000000E7    -1.201041349114190E-2  -2.787831426979075E1  -6.104820408232404  -1.213251883626208E2  -7.111957411464854E1   1.375238252563874E2  -1.408644837482601  -3.891867480528795E1  
 8.700886950000000E7    -1.330122342863824E-2  -2.842462390929816E1  -5.845008947234013  -1.220794951856800E2  -7.264387435643103E1   1.510174735081724E2  -1.451306934903462  -4.011776203629319E1  
 9.000886500000000E7    -7.014069535768038E-3  -2.996686489490668E1  -5.520208223665098  -1.234508048407952E2  -7.829640276760394E1   1.272589254338473E2  -1.593336521619684  -4.174373505186053E1  
 9.300886050000000E7     1.750295866603385E-2  -3.098052685543372E1  -5.177940597011655  -1.237418883074489E2  -7.073319966060595E1   1.501226404394374E2  -1.626284561160938  -4.259158048411215E1  
 9.600885600000000E7    -1.469555468099126E-2  -3.183548144587183E1  -4.906070735952508  -1.256429581200417E2  -6.698536326058516E1   1.589768486503644E2  -1.703028872909153  -4.398538296150119E1  
 9.900885150000000E7    -2.086562944779382E-2  -3.327479819976155E1  -4.674191543014912  -1.267776465949222E2  -6.657861133615810E1   1.373455703614908E2  -1.821300319997247  -4.452709876887622E1  
 1.020088470000000E8    -4.442121744828288E-2  -3.372531419356410E1  -4.421978523689320  -1.270591377847143E2  -7.315800040667919E1   1.399099028227503E2  -1.934882558492279  -4.576685094715946E1  
 1.050088425000000E8    -5.170670043994326E-2  -3.473635666876266E1  -4.226312153526802  -1.292948353566185E2  -6.906238316362608E1   1.296518537429536E2  -2.052967099649064  -4.735812427460898E1  
 1.080088380000000E8    -3.639285864381761E-2  -3.525536767114127E1  -3.939967178722412  -1.297100481218171E2  -6.728945660906852E1   1.435071178712581E2  -2.166296351601634  -4.761292043915616E1  
 1.110088335000000E8    -6.918150300186916E-2  -3.695677337691464E1  -3.768710188569203  -1.315983391437059E2  -6.754327925803651E1   1.311715398299935E2  -2.278377056977230  -4.909010562107275E1  
 1.140088290000000E8    -4.965167602778164E-2  -3.758520949424865E1  -3.543647214375486  -1.323540470958006E2  -6.817153689302877E1   1.184399691782997E2  -2.377409002240882  -4.997022925223585E1  
 1.170088245000000E8    -4.930379055678118E-3  -3.794847750900756E1  -3.321645834877948  -1.328586954476052E2  -6.621637132283220E1   1.282871764261868E2  -2.529630049267598  -5.133761777169621E1  
 1.200088200000000E8    -1.728488061755513E-2  -3.946450774815311E1  -3.115983915469004  -1.344801997867868E2  -6.861120502181652E1   1.154949352347660E2  -2.669997457881910  -5.166041155490934E1  
 1.230088155000000E8     3.913195430201946E-2  -4.070071725248214E1  -2.919104395108086  -1.353524353202277E2  -6.589412382018830E1   1.357494061657614E2  -2.734289530911192  -5.328778972579335E1  
 1.260088110000000E8    -5.714725934284531E-2  -4.148148870791387E1  -2.842328192437135  -1.366484446481850E2  -6.617810215991247E1   1.347883536400133E2  -2.852163634054740  -5.436892099212276E1  
 1.290088065000000E8     1.362315577834546E-3  -4.264445900466184E1  -2.543742630145861  -1.382627001264503E2  -6.444194273378436E1   1.250473397658536E2  -2.957697233203370  -5.519154449930772E1  
 1.320088020000000E8    -2.418948100668949E-2  -4.340546028827225E1  -2.387358087650262  -1.393482565145755E2  -6.588621621297175E1   1.355853961923884E2  -3.054499536477384  -5.618303786299657E1  
 1.350087975000000E8     2.695810158433754E-2  -4.454615495399377E1  -2.155161986238556  -1.399640062794296E2  -6.280630581966363E1   1.257528959635717E2  -3.105449840685193  -5.714052160340321E1  
 1.380087930000000E8    -2.875595006238734E-2  -4.521175321874651E1  -2.008572783119369  -1.411613838997051E2  -6.474132885015480E1   1.292863928270932E2  -3.144148895407684  -5.753093191901987E1  
 1.410087885000000E8     2.462697266054453E-2  -4.633443263635767E1  -1.828592747765697  -1.420343191343624E2  -6.387779858446643E1   1.264227548045023E2  -3.369033029465697  -5.887115825901317E1  
 1.440087840000000E8     1.775971744145206E-2  -4.731917044848883E1  -1.651559308452795  -1.434294467584152E2  -6.221419020653855E1   1.173175648641489E2  -3.552274456241317  -5.895209601295287E1  
 1.470087795000000E8     3.046193595909314E-2  -4.751053461753568E1  -1.539908124139649  -1.442117324490091E2  -6.205763333695808E1   1.177687065451619E2  -3.576853139636671  -5.996011539870562E1  
 1.500087750000000E8     5.410327542641469E-2  -4.938025687801862E1  -1.321528878551714  -1.457164216801684E2  -6.343856457945632E1   1.336289190216080E2  -3.665322796580065  -6.069869221720783E1  
 1.530087705000000E8     1.755833696576161E-2  -5.018110763710472E1  -1.228982796568116  -1.467857446205011E2  -6.388262590963716E1   1.245626581934305E2  -3.860628509752924  -6.143685639968560E1  
 1.560087660000000E8     2.535676507550281E-2  -5.111931071627647E1  -1.062153616221085  -1.479507212460760E2  -6.181362348920126E1   1.136128506774250E2  -3.947310215094893  -6.270206134925394E1  
 1.590087615000000E8    -1.118904585745039E-2  -5.217381881872510E1  -9.421597634240601E-1  -1.491527069484238E2  -6.119500360170449E1   1.175268652749094E2  -4.006918139475650  -6.297743671129630E1  
 1.620087570000000E8    -3.799365025620356E-3  -5.328906636338277E1  -7.493476428463991E-1  -1.504297098359890E2  -6.125963867536150E1   1.278081653031301E2  -4.201291638961119  -6.297042936044456E1  
 1.650087525000000E8     5.033883041259698E-3  -5.400734020367879E1  -6.376924034071941E-1  -1.512952378142884E2  -6.190746858797078E1   1.199387013486232E2  -4.365158650933731  -6.375022371164507E1  
 1.680087480000000E8     3.918340985458185E-2  -5.470153681199460E1  -4.609143199463595E-1  -1.525626640007095E2  -6.187308956657282E1   1.158402414735087E2  -4.342199029879760  -6.496882507188286E1  
 1.710087435000000E8    -1.441318997104273E-2  -5.666410480095803E1  -4.318976415492248E-1  -1.538917874270384E2  -5.965499101218689E1   1.196999571623605E2  -4.511224241627887  -6.523576788012190E1  
 1.740087390000000E8    -5.019383674522684E-2  -5.625945387489345E1  -2.887711089794124E-1  -1.544426031447231E2  -6.026031809624794E1   1.212598615421788E2  -4.598313134020652  -6.706825440112591E1  
 1.770087345000000E8     3.524850620625659E-2  -5.778302633608475E1  -1.260381047980210E-1  -1.558350020645140E2  -5.958362844000628E1   1.115372924634863E2  -4.674279909562530  -6.665555674215995E1  
 1.800087300000000E8    -3.645933812764799E-3  -5.894866351511244E1  -2.813716105726816E-2  -1.568571118266671E2  -5.967337843042867E1   1.152664335928796E2  -4.822410752765557  -6.727800971038074E1  
 1.830087255000000E8    -3.620134648553319E-2  -6.062598990757871E1   7.744254857777720E-2  -1.584173925391183E2  -5.925898268901562E1   1.121655308453133E2  -4.975492426458092  -6.824020408386861E1  
 1.860087210000000E8    -3.816523244849741E-2  -6.105175136099281E1   1.770748841920412E-1  -1.591284884779383E2  -5.948466990230187E1   1.064729688060124E2  -5.173902337614304  -6.899934771200520E1  
 1.890087165000000E8    -2.663127710756644E-2  -6.157166405590583E1   2.741955723519248E-1  -1.601870697795996E2  -5.827836950763978E1   1.126019188263776E2  -5.270408049697865  -6.981817863971153E1  
 1.920087120000000E8     3.707420869532184E-3  -6.291898436894140E1   4.219816525442549E-1  -1.606835992565251E2  -5.804024401795060E1   1.140886021334396E2  -5.366206226840829  -6.996033517345828E1  
 1.950087075000000E8    -2.256628549339910E-2  -6.352000233702388E1   5.716521029472534E-1  -1.618182179664225E2  -5.844982850567349E1   1.062821977526755E2  -5.514917102083124  -7.006054075518546E1  
 1.980087030000000E8    -2.303619043992242E-4  -6.509521980279523E1   6.693508701343228E-1  -1.630323426985110E2  -5.774644511350631E1   1.084331316792873E2  -5.569490971528844  -7.102926179556948E1  
 2.010086985000000E8    -2.332101939478633E-2  -6.592160160330590E1   7.472029430722718E-1  -1.653466671185017E2  -5.726773534685656E1   1.014861260988380E2  -5.783371605086614  -7.137640417845853E1  
 2.040086940000000E8     2.992662405447824E-2  -6.629075491900343E1   8.637272927242030E-1  -1.654880764098242E2  -5.816850706625310E1   1.031973526050326E2  -5.917302382466535  -7.127720842683955E1  
 2.070086895000000E8     2.712562564138199E-2  -6.753188377170716E1   9.964044877429286E-1  -1.665792404609128E2  -5.690781447558843E1   1.044193772248808E2  -5.972190183590924  -7.243457534003937E1  
 2.100086850000000E8    -3.972692229150591E-2  -6.862097577139070E1   1.044070689492102  -1.679717936126859E2  -5.704763682279925E1   1.046833919321414E2  -6.093432970610986  -7.187809914077936E1  
 2.130086805000000E8     5.127144775996819E-2  -6.958586509040478E1   1.203029545232343  -1.690131087403556E2  -5.667451502370258E1   1.064857267239696E2  -6.256736109125098  -7.300877330855677E1  
 2.160086760000000E8     4.034830907137121E-2  -7.037185093751214E1   1.309141316286711  -1.700046484431477E2  -5.765013153513993E1   9.752015379097325E1  -6.370846851863871  -7.321416633981764E1  
 2.190086715000000E8     1.014452139190544E-1  -7.154367666545117E1   1.433515984806703  -1.708686387988642E2  -5.646243035448096E1   1.036863678265963E2  -6.480306594672647  -7.294433390156691E1  
 2.220086670000000E8     1.184153604386587E-1  -7.232851223870308E1   1.502340897783555  -1.718601714089617E2  -5.626509972725141E1   9.710595058136032E1  -6.636189241692778  -7.435538848259731E1  
 2.250086625000000E8     1.238160463419576E-2  -7.375402233456072E1   1.561877410126961  -1.733972744353475E2  -5.625856066800996E1   9.984174198159346E1  -6.713814644233445  -7.468794096533257E1  
 2.280086580000000E8     4.777087949672548E-2  -7.443112213922302E1   1.643540193106872  -1.740550352439612E2  -5.608671286153650E1   9.374650734130300E1  -6.734059832497596  -7.452641095225084E1  
 2.310086535000000E8     7.842135917322810E-2  -7.534238290477252E1   1.750409523739336  -1.753513338791060E2  -5.572515947826510E1   9.265815043216652E1  -6.891812325860758  -7.427311634476216E1  
 2.340086490000000E8    -3.676286795335968E-3  -7.650879080142663E1   1.761886914191452  -1.773113617203017E2  -5.553552764548032E1   9.690837694196711E1  -7.020615339204590  -7.458550417601840E1  
 2.370086445000000E8     6.674447946668652E-2  -7.736388319858367E1   1.932253554282615  -1.774642576784940E2  -5.488240458830747E1   9.658638467041692E1  -7.108900081680343  -7.524473289119027E1  
 2.400086400000000E8     2.659408732488022E-2  -7.900759801644439E1   1.962553648438969  -1.789423713103950E2  -5.543942221194245E1   9.430558616435920E1  -7.261056346258736  -7.425256926897689E1  
 2.430086355000000E8    -1.337805087919439E-2  -7.913884841698253E1   2.045225125549479   1.798540642821462E2  -5.517989189084548E1   9.515382228318222E1  -7.374916788077334  -7.491285178333820E1  
 2.460086310000000E8     3.477860927028162E-2  -8.100723926223604E1   2.150055467727426   1.788060765700899E2  -5.488892124458957E1   9.126506314076603E1  -7.565373386393675  -7.520577237561369E1  
 2.490086265000000E8    -3.446746774526339E-2  -8.119720262681615E1   2.135667300279686   1.773113632143603E2  -5.454224064810777E1   8.619022281693964E1  -7.608431800965666  -7.538580186294169E1  
 2.520086220000000E8     1.516090504066699E-2  -8.229635085174064E1   2.271944475358814   1.765833763680938E2  -5.481596248546108E1   9.130835065148877E1  -7.764911529494611  -7.590169978044025E1  
 2.550086175000000E8    -1.346141449675016E-2  -8.329259306332860E1   2.294747607840835   1.748511159370758E2  -5.428428757649728E1   9.151946850023302E1  -7.949506838592026  -7.546702917618413E1  
 2.580086130000000E8     3.380220023252371E-2  -8.365635126001197E1   2.450511059557131   1.742541258354883E2  -5.395013817920864E1   9.030614655883174E1  -7.841218533765276  -7.573185894037766E1  
 2.610086085000000E8    -7.959910602296169E-2  -8.449953722588577E1   2.435666168121566   1.735579459020613E2  -5.398590485641936E1   8.729924520356796E1  -8.119190063784004  -7.585549761837187E1  
 2.640086040000000E8    -3.992248805399456E-2  -8.659801700602240E1   2.510279014044619   1.719113412943622E2  -5.361141378214018E1   8.704455671246582E1  -8.313138255359545  -7.625027264722604E1  
 2.670085995000000E8    -1.120765762939976E-3  -8.713813048523966E1   2.628777455177338   1.710941799090717E2  -5.338509759318227E1   8.467632200045586E1  -8.404800172065162  -7.521500506899965E1  
 2.700085950000000E8    -1.723788694201055E-2  -8.812702847685755E1   2.664860740639603   1.700420880509349E2  -5.342358781473228E1   8.369255178415889E1  -8.485260671070245  -7.638848988665447E1  
 2.730085905000000E8    -2.590319273988979E-2  -8.932521452970380E1   2.724548290244665   1.689659352675746E2  -5.323383733050465E1   8.599739865592692E1  -8.409134712815131  -7.600582627390062E1  
 2.760085860000000E8     8.696356330001777E-2  -8.891487957341387E1   2.877915096485967   1.678696762254144E2  -5.265137386308893E1   8.368498497798537E1  -8.551022350629571  -7.555981673991748E1  
 2.790085815000000E8     4.856922097005754E-2  -9.071553684171875E1   2.899398440090611   1.661856996796866E2  -5.243955050305004E1   8.303876463921522E1  -8.687914558800825  -7.571160532825182E1  
 2.820085770000000E8     1.157982217091694E-1  -9.132286434265888E1   3.043152394761646   1.655649500685232E2  -5.288503317940248E1   8.278727169534048E1  -8.798494434713383  -7.556957116152024E1  
 2.850085725000000E8    -7.206059951305922E-4  -9.257631042394610E1   2.991033287756438   1.644578874487148E2  -5.184235008046255E1   7.690177099219483E1  -8.813360663596848  -7.556580919939411E1  
 2.880085680000000E8     1.795145222869667E-2  -9.303210339621211E1   3.067990994283328   1.634460304777327E2  -5.184781310379250E1   7.783784652992536E1  -8.823942149754890  -7.482412140634284E1  
 2.910085635000000E8    -2.176434795500926E-2  -9.434968969967758E1   3.083977392436128   1.611672314625551E2  -5.183467790175059E1   7.685880604970451E1  -9.056139692696759  -7.519011748698760E1  
 2.940085590000000E8    -8.055697277888615E-2  -9.547437924027521E1   3.079585483031630   1.610293602926045E2  -5.172134923932475E1   7.749218356243441E1  -9.092880418801620  -7.395862201008207E1  
 2.970085545000000E8     1.056640783938644E-2  -9.642166958448883E1   3.199676375597840   1.599090939003278E2  -5.147026332244707E1   7.338012430110545E1  -9.122791695619084  -7.417520832593232E1  
