#  HZ   S   DB   R     50.0 
! Rohde & Schwarz ZVL 
! 
! 
! 
 1.000000000000000E6    -1.888210475008052E-3  -1.237385255054469  
 2.499750000000000E6    -5.144429674647712E-2  -1.159571181880199  
 3.999500000000000E6     1.817980154745894E-1  -3.105073274272576  
 5.499250000000000E6    -2.195531075273877E-2  -2.618390333485360  
 6.999000000000000E6     5.204637931727397E-2  -3.493910433263372  
 8.498750000000000E6     5.674128962139220E-2  -4.480334724839801  
 9.998500000000000E6    -2.904849319855099E-2  -5.859327152335495  
 1.149825000000000E7    -6.814118780624588  -7.401145819523171  
 1.299800000000000E7    -1.694044525738868E-1  -6.833247905526897  
 1.449775000000000E7    -3.430245978010404E-2  -7.193791357508433  
 1.599750000000000E7    -1.369739706451192E-2  -7.729896374951707  
 1.749725000000000E7    -5.934997654157624E-2  -8.918348321476781  
 1.899700000000000E7    -7.231887031309586E-2  -9.459060232583770  
 2.049675000000000E7     1.091814412373392E-2  -1.050194307255753E1  
 2.199650000000000E7    -2.620142894482000E-2  -1.153512435493833E1  
 2.349625000000000E7    -7.887061998025451E-2  -1.227043942844406E1  
 2.499600000000000E7    -9.827631354342972E-2  -1.374446817964004E1  
 2.649575000000000E7    -3.088046875156398E-1  -1.139503193461977E1  
 2.799550000000000E7    -8.977941203395021E-2  -1.334855949837931E1  
 2.949525000000000E7    -4.011708827268622E-2  -1.415181183617892E1  
 3.099500000000000E7    -3.166635481802272E-2  -1.497734384323571E1  
 3.249475000000000E7    -1.327791485145716E-2  -1.614758542658495E1  
 3.399450000000000E7    -1.666102690004147E-2  -1.689266849475366E1  
 3.549425000000000E7    -2.833870408783123E-2  -1.774619577910444E1  
 3.699400000000000E7    -5.268811644593580E-2  -1.858751417791543E1  
 3.849375000000000E7    -4.680271946387287E-2  -1.952321358248134E1  
 3.999350000000000E7    -3.465878341335536E-2  -2.031560042683613E1  
 4.149325000000000E7    -7.366096639477326E-2  -2.068889782526561E1  
 4.299300000000000E7    -4.159027299996593E-2  -2.185877250281766E1  
 4.449275000000000E7    -7.276052779685921E-2  -2.256223443044695E1  
 4.599250000000000E7    -6.577945930440873E-2  -2.317309717618416E1  
 4.749225000000000E7    -1.242867701507663E-1  -2.450005190994876E1  
 4.899200000000000E7    -1.310651726845041E-1  -2.492662329800305E1  
 5.049175000000000E7    -9.261903625261478E-2  -2.564440852726045E1  
 5.199150000000000E7    -6.280967246469270E-2  -2.674869498726167E1  
 5.349125000000000E7    -1.035341571515588E-1  -2.733124722494288E1  
 5.499100000000000E7    -1.135039537944383E-1  -2.816136569942399E1  
 5.649075000000000E7    -1.310291804689019E-1  -2.883949496179542E1  
 5.799050000000000E7    -1.379386019059560E-1  -2.989812099347577E1  
 5.949025000000000E7    -1.533074204616211E-1  -3.066322147906834E1  
 6.099000000000000E7    -1.619270155576887E-1  -3.104363997869152E1  
 6.248975000000000E7    -1.582694907533540E-1  -3.194238296045750E1  
 6.398950000000000E7    -1.834017639109521E-1  -3.261903028707745E1  
 6.548925000000000E7    -1.667187184815179E-1  -3.344107934394797E1  
 6.698900000000000E7    -2.262182978457415E-1  -3.429964481577456E1  
 6.848875000000000E7    -2.174215344861864E-1  -3.471655549049866E1  
 6.998850000000000E7    -2.010599473404252E-1  -3.526956066710545E1  
 7.148825000000000E7    -2.106306110494993E-1  -3.615864171035582E1  
 7.298800000000000E7    -2.533341257846417E-1  -3.715710162848186E1  
 7.448775000000000E7    -2.381496199590417E-1  -3.809192841986152E1  
 7.598750000000000E7    -2.413289944587100E-1  -3.842797769248151E1  
 7.748725000000000E7    -2.432364413335272E-1  -3.936348894875585E1  
 7.898700000000000E7    -2.825636999604966E-1  -4.071392261278539E1  
 8.048675000000000E7    -2.946791094945587E-1  -4.084048226362054E1  
 8.198650000000000E7    -2.748787696685319E-1  -4.163940810950606E1  
 8.348625000000000E7    -2.952510660799883E-1  -4.254620544137087E1  
 8.498600000000000E7    -3.102821522776365E-1  -4.350041409835401E1  
 8.648575000000000E7    -2.835699472215216E-1  -4.414559209038360E1  
 8.798550000000000E7    -3.564733102554654E-1  -4.486595210418020E1  
 8.948525000000000E7    -3.257357695374861E-1  -4.560746190019875E1  
 9.098500000000000E7    -3.585024888186129E-1  -4.663639830122036E1  
 9.248475000000000E7    -3.967815861080277E-1  -4.682925658192135E1  
 9.398450000000000E7    -4.258673622468497E-1  -4.805930190973407E1  
 9.548425000000000E7    -4.138888447174521E-1  -4.935896843349050E1  
 9.698400000000000E7    -4.238826529349764E-1  -4.953307198778792E1  
 9.848375000000000E7    -4.369184660610846E-1  -5.052171537809637E1  
 9.998350000000000E7    -4.651552860102554E-1  -5.106491319925140E1  
 1.014832500000000E8    -4.992606387942883E-1  -5.167438364846054E1  
 1.029830000000000E8    -5.441835111083350E-1  -5.281009421447823E1  
 1.044827500000000E8    -6.145719472639607E-1  -5.364457571482343E1  
 1.059825000000000E8    -6.470996401705262E-1  -5.360204640683520E1  
 1.074822500000000E8    -7.265018962600615E-1  -5.315040043965707E1  
 1.089820000000000E8    -5.809293957106153E-1  -5.413083261378012E1  
 1.104817500000000E8    -5.494799819791085E-1  -5.493905765486461E1  
 1.119815000000000E8    -5.421558160393657E-1  -5.597478118891696E1  
 1.134812500000000E8    -5.299520294709351E-1  -5.705092354253478E1  
 1.149810000000000E8    -5.344811617289935E-1  -5.782966737982639E1  
 1.164807500000000E8    -5.747477957900243E-1  -5.856521662136966E1  
 1.179805000000000E8    -6.074165447264032E-1  -5.966560276359269E1  
 1.194802500000000E8    -6.172414749276924E-1  -6.007145903874121E1  
 1.209800000000000E8    -5.374248715672962E-1  -6.144742806521539E1  
 1.224797500000000E8    -5.988783723453653E-1  -6.157811232801448E1  
 1.239795000000000E8    -6.500778385937713E-1  -6.288370295054296E1  
 1.254792500000000E8    -6.015374272110118E-1  -6.321180954879687E1  
 1.269790000000000E8    -6.900238262370466E-1  -6.460627881299355E1  
 1.284787500000000E8    -6.806888838729108E-1  -6.504763119814680E1  
 1.299785000000000E8    -6.193620468605519E-1  -6.579603882684454E1  
 1.314782500000000E8    -6.192503237050056E-1  -6.680795560986223E1  
 1.329780000000000E8    -7.032475415484993E-1  -6.748700645444188E1  
 1.344777500000000E8    -7.258740171441049E-1  -6.847073589148069E1  
 1.359775000000000E8    -7.595412777289693E-1  -6.939972859206628E1  
 1.374772500000000E8    -7.675126920284480E-1  -6.973857534385094E1  
 1.389770000000000E8    -8.368428764681106E-1  -7.069448560029206E1  
 1.404767500000000E8    -8.613886537826497E-1  -7.185453670415585E1  
 1.419765000000000E8    -8.993907710307706E-1  -7.261697348492734E1  
 1.434762500000000E8    -8.395837480533972E-1  -7.317742110282670E1  
 1.449760000000000E8    -9.072793667708894E-1  -7.353595693512131E1  
 1.464757500000000E8    -9.005063079812834E-1  -7.434049245475048E1  
 1.479755000000000E8    -9.201742413474829E-1  -7.536713415549227E1  
 1.494752500000000E8    -9.942825994414609E-1  -7.601633137852552E1  
 1.509750000000000E8    -9.401219584078356E-1  -7.685188948185426E1  
 1.524747500000000E8    -1.054087987513122  -7.763847483846092E1  
 1.539745000000000E8    -9.624848803334362E-1  -7.798489150432337E1  
 1.554742500000000E8    -1.059208034327838  -7.891927042820616E1  
 1.569740000000000E8    -1.056187847186761  -8.000610708157973E1  
 1.584737500000000E8    -1.107549126626463  -8.078159778159230E1  
 1.599735000000000E8    -1.117912725802063  -8.136714348662659E1  
 1.614732500000000E8    -1.176327150540580  -8.176721395532832E1  
 1.629730000000000E8    -1.192715645910800  -8.258644635225203E1  
 1.644727500000000E8    -1.211776737288784  -8.377752615775871E1  
 1.659725000000000E8    -1.231918372095622  -8.436949448659426E1  
 1.674722500000000E8    -1.165962619119622  -8.533745351773348E1  
 1.689720000000000E8    -1.256833847829585  -8.563044756657091E1  
 1.704717500000000E8    -1.300752153863589  -8.645372379542407E1  
 1.719715000000000E8    -1.263803254421432  -8.758925369878807E1  
 1.734712500000000E8    -1.387059241965121  -8.807345614409694E1  
 1.749710000000000E8    -1.384657593804086  -8.856488437135896E1  
 1.764707500000000E8    -1.434150122956323  -8.939561587550779E1  
 1.779705000000000E8    -1.430717956134245  -9.016336212764716E1  
 1.794702500000000E8    -1.417029029980814  -9.123623465288553E1  
 1.809700000000000E8    -1.403536652204540  -9.197176061080845E1  
 1.824697500000000E8    -1.443923627865751  -9.283466470875131E1  
 1.839695000000000E8    -1.500589930402066  -9.303891941129146E1  
 1.854692500000000E8    -1.500330083866539  -9.426243707981362E1  
 1.869690000000000E8    -1.549100378289045  -9.508903044171962E1  
 1.884687500000000E8    -1.522234105957477  -9.541815283949235E1  
 1.899685000000000E8    -1.549945041775869  -9.647745813642025E1  
 1.914682500000000E8    -1.624903569625502  -9.676104660363126E1  
 1.929680000000000E8    -1.648121203889126  -9.801361228591355E1  
 1.944677500000000E8    -1.697649148273800  -9.870660480119975E1  
 1.959675000000000E8    -1.747792353023209  -9.926164367708932E1  
 1.974672500000000E8    -1.700841446555747  -1.001839546420187E2  
 1.989670000000000E8    -1.882275255265097  -1.007287025003754E2  
 2.004667500000000E8    -1.814454502715309  -1.019674191732236E2  
 2.019665000000000E8    -1.866665349576069  -1.026609145633914E2  
 2.034662500000000E8    -1.897858049887875  -1.035246524449701E2  
 2.049660000000000E8    -1.952208089239855  -1.040861256864244E2  
 2.064657500000000E8    -2.023526716255558  -1.050425457529119E2  
 2.079655000000000E8    -1.991622877883391  -1.056568974804165E2  
 2.094652500000000E8    -2.017010020189748  -1.061651537774445E2  
 2.109650000000000E8    -2.078203202374573  -1.072834907386727E2  
 2.124647500000000E8    -2.096791699624047  -1.081641246224490E2  
 2.139645000000000E8    -2.082388645591641  -1.088265130708523E2  
 2.154642500000000E8    -2.129694675729579  -1.092403014804338E2  
 2.169640000000000E8    -2.178354690670696  -1.095796588094340E2  
 2.184637500000000E8    -2.230262452982995  -1.113317487896338E2  
 2.199635000000000E8    -2.276403776431273  -1.112738149588924E2  
 2.214632500000000E8    -2.265617513147431  -1.126175385923848E2  
 2.229630000000000E8    -2.274532884172421  -1.128206014273657E2  
 2.244627500000000E8    -2.296475007086152  -1.138125226919641E2  
 2.259625000000000E8    -2.391476328265626  -1.145406485608781E2  
 2.274622500000000E8    -2.457484427806064  -1.154801241641818E2  
 2.289620000000000E8    -2.413888783684140  -1.160751729752181E2  
 2.304617500000000E8    -2.500727674645173  -1.168332696048847E2  
 2.319615000000000E8    -2.528053303836927  -1.177500310899804E2  
 2.334612500000000E8    -2.608585148293327  -1.183960062970119E2  
 2.349610000000000E8    -2.632526849323387  -1.192137208039204E2  
 2.364607500000000E8    -2.715191930934179  -1.197644037469792E2  
 2.379605000000000E8    -2.762842833318150  -1.203039823474062E2  
 2.394602500000000E8    -2.793238237454352  -1.209231338986188E2  
 2.409600000000000E8    -2.861882091642309  -1.221890431698737E2  
 2.424597500000000E8    -2.807779204632851  -1.227065438459442E2  
 2.439595000000000E8    -2.867128829395392  -1.237455239454066E2  
 2.454592500000000E8    -2.936901871050434  -1.243200106880131E2  
 2.469590000000000E8    -2.977572490799652  -1.247838422344033E2  
 2.484587500000000E8    -2.975151635681162  -1.257152904525465E2  
 2.499585000000000E8    -3.091698807574633  -1.267921110079520E2  
 2.514582500000000E8    -3.118622030709394  -1.276327732244520E2  
 2.529580000000000E8    -3.093645033018484  -1.274915551447983E2  
 2.544577500000000E8    -3.124004325781378  -1.283831945725485E2  
 2.559575000000000E8    -3.170518773444447  -1.298494095576978E2  
 2.574572500000000E8    -3.236374665206834  -1.303460758504189E2  
 2.589570000000000E8    -3.292664473077431  -1.308737469228555E2  
 2.604567500000000E8    -3.273594819599000  -1.318551111371521E2  
 2.619565000000000E8    -3.394095336158101  -1.329246488588459E2  
 2.634562500000000E8    -3.360285494284719  -1.332432894447293E2  
 2.649560000000000E8    -3.467543594194484  -1.341117212704384E2  
 2.664557500000000E8    -3.489469549264451  -1.345942695931023E2  
 2.679555000000000E8    -3.564636079020651  -1.355085027340595E2  
 2.694552500000000E8    -3.575829009550470  -1.365889459547316E2  
 2.709550000000000E8    -3.639701497988258  -1.372764396735633E2  
 2.724547500000000E8    -3.657024536791114  -1.378091360174955E2  
 2.739545000000000E8    -3.732919254221520  -1.390412998239584E2  
 2.754542500000000E8    -3.782528138907946  -1.392406937736212E2  
 2.769540000000000E8    -3.789954503424108  -1.401368526824618E2  
 2.784537500000000E8    -3.950355812468076  -1.407782481116609E2  
 2.799535000000000E8    -3.933999954640600  -1.418519085592845E2  
 2.814532500000000E8    -3.959056013922309  -1.425966904605716E2  
 2.829530000000000E8    -4.049330041062923  -1.431794269102155E2  
 2.844527500000000E8    -4.086880656354148  -1.433323764759558E2  
 2.859525000000000E8    -4.204920765567121  -1.444247512637124E2  
 2.874522500000000E8    -4.249669476497478  -1.454730712644966E2  
 2.889520000000000E8    -4.277613896004841  -1.460326269580659E2  
 2.904517500000000E8    -4.311993931323680  -1.464737935963597E2  
 2.919515000000000E8    -4.425381021274962  -1.477643798797110E2  
 2.934512500000000E8    -4.498032763445568  -1.483867992508038E2  
 2.949510000000000E8    -4.503070351225292  -1.491217986672685E2  
 2.964507500000000E8    -4.541148925206674  -1.500437838822658E2  
 2.979505000000000E8    -4.631129498683012  -1.505155750150334E2  
 2.994502500000000E8    -4.756419155427980  -1.515056422777340E2  
 3.009500000000000E8    -4.715689006122924  -1.524392839350380E2  
 3.024497500000000E8    -4.843112390591518  -1.532639370068296E2  
 3.039495000000000E8    -4.808998911729102  -1.535234981358765E2  
 3.054492500000000E8    -4.889346566836758  -1.546812413706894E2  
 3.069490000000000E8    -5.013256603253865  -1.558247167295925E2  
 3.084487500000000E8    -5.060155165310817  -1.562946859001484E2  
 3.099485000000000E8    -5.139919497300503  -1.569801569735168E2  
 3.114482500000000E8    -5.169575206911253  -1.577379135651051E2  
 3.129480000000000E8    -5.314983889466522  -1.585575034366495E2  
 3.144477500000000E8    -5.352384466872147  -1.594695525720204E2  
 3.159475000000000E8    -5.398257414327298  -1.602820143001636E2  
 3.174472500000000E8    -5.479217312530435  -1.608959367426432E2  
 3.189470000000000E8    -5.517692668761281  -1.616381693698466E2  
 3.204467500000000E8    -5.566213509991598  -1.617273337509100E2  
 3.219465000000000E8    -5.714987923954854  -1.630504596550052E2  
 3.234462500000000E8    -5.755127958470371  -1.641879001300427E2  
 3.249460000000000E8    -5.788924706775778  -1.648392855175504E2  
 3.264457500000000E8    -5.927809274577519  -1.656663524897587E2  
 3.279455000000000E8    -6.030795776159510  -1.658668557059127E2  
 3.294452500000000E8    -6.099347432074158  -1.667396268438407E2  
 3.309450000000000E8    -6.202695230865981  -1.673954102491865E2  
 3.324447500000000E8    -6.258603746049286  -1.681994781640309E2  
 3.339445000000000E8    -6.303017421370075  -1.685759478141806E2  
 3.354442500000000E8    -6.398127274506186  -1.700645948356129E2  
 3.369440000000000E8    -6.448633265201383  -1.706929227478676E2  
 3.384437500000000E8    -6.578920210574809  -1.720474254881014E2  
 3.399435000000000E8    -6.633682002805467  -1.724243672754537E2  
 3.414432500000000E8    -6.719223860219011  -1.732708206148114E2  
 3.429430000000000E8    -6.841530790678425  -1.737581541873190E2  
 3.444427500000000E8    -6.904510232431244  -1.746482837931516E2  
 3.459425000000000E8    -7.002267698783293  -1.752619823500041E2  
 3.474422500000000E8    -7.139600533362825  -1.763740342229450E2  
 3.489420000000000E8    -7.149319068323633  -1.774569722700688E2  
 3.504417500000000E8    -7.240869632144509  -1.772172711969232E2  
 3.519415000000000E8    -7.300757510643161  -1.782269959969474E2  
 3.534412500000000E8    -7.413595291171762  -1.790367363713842E2  
 3.549410000000000E8    -7.469847986263468   1.798939073648841E2  
 3.564407500000000E8    -7.590292801943476   1.793377221188313E2  
 3.579405000000000E8    -7.640996978664465   1.790284597358089E2  
 3.594402500000000E8    -7.845020549110251   1.779744916867118E2  
 3.609400000000000E8    -7.984565446860408   1.771376154291547E2  
 3.624397500000000E8    -8.062264854997927   1.764063703017901E2  
 3.639395000000000E8    -8.226731459620948   1.754286977164041E2  
 3.654392500000000E8    -8.251393932526074   1.745299435315045E2  
 3.669390000000000E8    -8.320902537666861   1.735757903734777E2  
 3.684387500000000E8    -8.463095888028926   1.726437949343398E2  
 3.699385000000000E8    -8.501969362682843   1.722858654645715E2  
 3.714382500000000E8    -8.624444393041467   1.714528596894357E2  
 3.729380000000000E8    -8.813478744106938   1.702836001572071E2  
 3.744377500000000E8    -8.888806125849120   1.693020803534708E2  
 3.759375000000000E8    -8.977277294093055   1.679588444727976E2  
 3.774372500000000E8    -9.047361688930341   1.677259178182714E2  
 3.789370000000000E8    -9.202866668229945   1.665382939428170E2  
 3.804367500000000E8    -9.207283443293324   1.661469363738877E2  
 3.819365000000000E8    -9.435496354194108   1.659333193300216E2  
 3.834362500000000E8    -9.569124050879232   1.645426288686279E2  
 3.849360000000000E8    -9.646627677911701   1.634351441346633E2  
 3.864357500000000E8    -9.832589409352334   1.632639348505888E2  
 3.879355000000000E8    -9.815312932471233   1.627597939432783E2  
 3.894352500000000E8    -1.003327622708787E1   1.619995423611213E2  
 3.909350000000000E8    -1.012928754629316E1   1.609085814492959E2  
 3.924347500000000E8    -1.038050837948126E1   1.601407614713151E2  
 3.939345000000000E8    -1.037937962106853E1   1.588647662389415E2  
 3.954342500000000E8    -1.057714493743509E1   1.587528119213584E2  
 3.969340000000000E8    -1.069637389902726E1   1.578459060614653E2  
 3.984337500000000E8    -1.101290816118813E1   1.573586908738711E2  
 3.999335000000000E8    -1.113615894285766E1   1.562194682501202E2  
 4.014332500000000E8    -1.120424991501925E1   1.555528292535451E2  
 4.029330000000000E8    -1.135848686024776E1   1.535150639064272E2  
 4.044327500000000E8    -1.157919835412200E1   1.535056976266595E2  
 4.059325000000000E8    -1.169474020924150E1   1.525676636349006E2  
 4.074322500000000E8    -1.193754397994906E1   1.506061978284314E2  
 4.089320000000000E8    -1.217466853919739E1   1.502029261308011E2  
 4.104317500000000E8    -1.234730943448597E1   1.499372293195499E2  
 4.119315000000000E8    -1.254310140542310E1   1.487252785831965E2  
 4.134312500000000E8    -1.265423264583675E1   1.477768409431307E2  
 4.149310000000000E8    -1.287328650441848E1   1.457589700397969E2  
 4.164307500000000E8    -1.311258108726153E1   1.453848926611389E2  
 4.179305000000000E8    -1.316134627402107E1   1.438096094887146E2  
 4.194302500000000E8    -1.329731628990005E1   1.444445311808437E2  
 4.209300000000000E8    -1.352742653355319E1   1.424752880267184E2  
 4.224297500000000E8    -1.353721036835394E1   1.410363032890333E2  
 4.239295000000000E8    -1.367603931794525E1   1.386778739352749E2  
 4.254292500000000E8    -1.405544364926517E1   1.388586447916949E2  
 4.269290000000000E8    -1.415791815339377E1   1.378963443682739E2  
 4.284287500000000E8    -1.439292341493508E1   1.361941660206281E2  
 4.299285000000000E8    -1.451015495181592E1   1.365556303967013E2  
 4.314282500000000E8    -1.489505708627297E1   1.355291922189268E2  
 4.329280000000000E8    -1.510447831601885E1   1.336659032771858E2  
 4.344277500000000E8    -1.513812508617684E1   1.328468921916435E2  
 4.359275000000000E8    -1.546673207408438E1   1.320873693957322E2  
 4.374272500000000E8    -1.575319875215849E1   1.319660003413603E2  
