#  HZ   S   DB   R     50.0 
! Rohde & Schwarz ZVL 
! 
! 
! 
 1.000000000000000E6    -5.426211869559324E1  -1.350049113162758E2  
 2.499750000000000E6    -6.307397279346120E1  -2.185802465179508E1  
 3.999500000000000E6    -6.979602667871919E1  -1.200732109901655E2  
 5.499250000000000E6    -7.062344431067575E1   1.471186568858587E2  
 6.999000000000000E6    -7.328385887217222E1  -1.459542709365162E2  
 8.498750000000000E6    -7.782971480976349E1   2.744585274986591E1  
 9.998500000000000E6    -7.493017789959636E1  -1.733128800040413E2  
 1.149825000000000E7    -7.419398532186592E1   1.308041940912182E2  
 1.299800000000000E7    -7.004842215231655E1  -1.635592855530198E2  
 1.449775000000000E7    -7.057882873200940E1   1.570813384035075E2  
 1.599750000000000E7    -6.635364175197913E1   1.644675024636114E2  
 1.749725000000000E7    -6.740673242835045E1   1.039160085530747E2  
 1.899700000000000E7    -6.616035888573077E1   1.216983368652475E2  
 2.049675000000000E7    -6.255443064001364E1   1.284228341014983E2  
 2.199650000000000E7    -6.562656303261745E1   1.133152421962941E2  
 2.349625000000000E7    -5.869427622945427E1   1.288274070003399E2  
 2.499600000000000E7    -5.024776490838870E1   1.195443460953895E2  
 2.649575000000000E7    -4.579154000059020E1   1.956818648920492E1  
 2.799550000000000E7    -5.276661619629643E1  -5.745039314442447  
 2.949525000000000E7    -5.422043658091970E1  -3.692338489986192E1  
 3.099500000000000E7    -5.482645837880094E1  -2.979365043801316E1  
 3.249475000000000E7    -5.746888966911084E1  -6.624959477160157E1  
 3.399450000000000E7    -6.153819107254345E1  -8.455895446520074E1  
 3.549425000000000E7    -6.373131114450229E1  -9.591170229067345E1  
 3.699400000000000E7    -6.475851095729780E1  -8.993999555276614E1  
 3.849375000000000E7    -6.814115187769502E1  -1.078494286006574E2  
 3.999350000000000E7    -6.855481824518166E1  -1.148804255742163E2  
 4.149325000000000E7    -7.352568152063134E1  -1.048606522948904E2  
 4.299300000000000E7    -7.083729712015372E1  -1.401494366523193E2  
 4.449275000000000E7    -7.898263482175112E1   4.333369495574458E1  
 4.599250000000000E7    -7.644474780216211E1  -1.601733041273295E2  
 4.749225000000000E7    -7.416261905120665E1  -6.602720083016614  
 4.899200000000000E7    -8.902404259717771E1   9.647813491666456E1  
 5.049175000000000E7    -7.814118709897079E1   1.271810562160729E1  
 5.199150000000000E7    -8.006631315292820E1   5.506150864992992E1  
 5.349125000000000E7    -7.949841383195485E1   2.916276821748967E1  
 5.499100000000000E7    -8.315559388890370E1  -1.511379805954441E2  
 5.649075000000000E7    -8.542628070130495E1   1.559555920831924E2  
 5.799050000000000E7    -9.258524277130343E1   8.977992159645666E1  
 5.949025000000000E7    -7.455146239454271E1   1.127814854197740E2  
 6.099000000000000E7    -7.602780753270058E1   6.497848598778128E1  
 6.248975000000000E7    -7.215380242887368E1   8.002422684439928E1  
 6.398950000000000E7    -7.246079105555016E1   3.601186432565879E1  
 6.548925000000000E7    -7.347954423210061E1   5.861144751612092E1  
 6.698900000000000E7    -7.122494216572976E1   2.903126022728501E1  
 6.848875000000000E7    -7.768607159600818E1   4.705597377794718E1  
 6.998850000000000E7    -7.263725989775011E1   4.499416966028680E1  
 7.148825000000000E7    -7.134844380920112E1   7.207601476950907E1  
 7.298800000000000E7    -7.042302560455579E1   5.527162826629121E1  
 7.448775000000000E7    -6.620385445075978E1   4.682576100711785E1  
 7.598750000000000E7    -6.580885048486515E1   4.880124007763917E1  
 7.748725000000000E7    -6.649817058270247E1   4.330734498378944E1  
 7.898700000000000E7    -6.530684816072805E1   5.073132263921851E1  
 8.048675000000000E7    -6.609220353358175E1   4.138060541950484E1  
 8.198650000000000E7    -6.339637404022128E1   4.151057382977943E1  
 8.348625000000000E7    -6.343387906836290E1   3.556506535414831E1  
 8.498600000000000E7    -6.138272119411924E1   3.271174809058856E1  
 8.648575000000000E7    -6.231022625310699E1   2.617452143767281E1  
 8.798550000000000E7    -6.070801968055663E1   2.403723874448636E1  
 8.948525000000000E7    -5.891402677811876E1   1.804577161877928E1  
 9.098500000000000E7    -5.832813343727495E1   9.091517439420095  
 9.248475000000000E7    -5.769437069560568E1   5.215514150727428  
 9.398450000000000E7    -5.567499528013197E1  -4.192407626751789  
 9.548425000000000E7    -5.424105835509673E1  -1.432415406367724E1  
 9.698400000000000E7    -5.465796129807406E1  -1.629884558143443E1  
 9.848375000000000E7    -5.356852364566635E1  -1.862409128179122E1  
 9.998350000000000E7    -5.124678839376610E1  -1.763190174800444E1  
 1.014832500000000E8    -4.837085173046989E1  -2.284284391930247E1  
 1.029830000000000E8    -4.523717486324607E1  -3.357337808109974E1  
 1.044827500000000E8    -4.131811178274224E1  -6.021574781527104E1  
 1.059825000000000E8    -3.947404066671508E1  -1.022494425513290E2  
 1.074822500000000E8    -4.195666621142281E1  -1.418041460628492E2  
 1.089820000000000E8    -4.471464180235296E1  -1.571871249602586E2  
 1.104817500000000E8    -4.681412373421829E1  -1.655984039195463E2  
 1.119815000000000E8    -4.838509520598294E1  -1.732047063645931E2  
 1.134812500000000E8    -4.953928388510789E1  -1.777261186157217E2  
 1.149810000000000E8    -5.040011845436713E1   1.765855148407346E2  
 1.164807500000000E8    -5.087241263474898E1   1.739391964184185E2  
 1.179805000000000E8    -5.157526829795715E1   1.701245625996041E2  
 1.194802500000000E8    -5.145647732395572E1   1.703485827651633E2  
 1.209800000000000E8    -5.112005014102610E1   1.664186822645897E2  
 1.224797500000000E8    -5.103849964346170E1   1.601363778513683E2  
 1.239795000000000E8    -5.107892670735586E1   1.564734751302611E2  
 1.254792500000000E8    -5.078956858690127E1   1.525452862440382E2  
 1.269790000000000E8    -4.976244217068462E1   1.464785539521525E2  
 1.284787500000000E8    -4.898091489989707E1   1.379275440869256E2  
 1.299785000000000E8    -4.861037702051706E1   1.276372373652060E2  
 1.314782500000000E8    -4.763894925964773E1   1.152547764901402E2  
 1.329780000000000E8    -4.699239318143580E1   9.734022671690921E1  
 1.344777500000000E8    -4.771014001070199E1   7.150186142598909E1  
 1.359775000000000E8    -4.995246397022056E1   5.532243194126765E1  
 1.374772500000000E8    -5.190628060491584E1   4.623859066785238E1  
 1.389770000000000E8    -5.378177541878939E1   3.625504569917102E1  
 1.404767500000000E8    -5.550088073037346E1   3.350220545433492E1  
 1.419765000000000E8    -5.715098753588742E1   2.672041959338423E1  
 1.434762500000000E8    -6.027306302216861E1   2.338637268860176E1  
 1.449760000000000E8    -6.224351976090449E1   1.468184094802439E1  
 1.464757500000000E8    -6.572230998062244E1   1.855722520108806E1  
 1.479755000000000E8    -6.847876512196820E1   1.142513175111543E1  
 1.494752500000000E8    -6.685936931679615E1   2.390901443536269E1  
 1.509750000000000E8    -7.383524753994543E1   2.581996649412918E1  
 1.524747500000000E8    -7.500108163291833E1   6.311815858256073E1  
 1.539745000000000E8    -7.054094652087593E1   7.023572730321187E1  
 1.554742500000000E8    -8.052286358783159E1   6.479085229165314E1  
 1.569740000000000E8    -7.252718768539883E1   1.173337880390591E2  
 1.584737500000000E8    -7.360422631592304E1   1.037553667646310E2  
 1.599735000000000E8    -7.234860520435646E1   1.150449374221425E2  
 1.614732500000000E8    -6.895832487932741E1   1.067313201993284E2  
 1.629730000000000E8    -6.723993783752913E1   9.684565660641884E1  
 1.644727500000000E8    -6.691307619368935E1   1.091131832275941E2  
 1.659725000000000E8    -6.543544680103238E1   9.927997864354217E1  
 1.674722500000000E8    -6.702907416919959E1   1.099298194310475E2  
 1.689720000000000E8    -6.981102804040454E1   7.665334814918508E1  
 1.704717500000000E8    -6.739977418388779E1   1.085741219436914E2  
 1.719715000000000E8    -6.995536398542133E1   9.929231003635772E1  
 1.734712500000000E8    -7.208938295477427E1   1.128829336977099E2  
 1.749710000000000E8    -6.908631958607950E1   1.184903795447032E2  
 1.764707500000000E8    -7.337836063441320E1   1.042034322971978E2  
 1.779705000000000E8    -7.437823307548648E1   1.210947828650983E2  
 1.794702500000000E8    -6.859467875184987E1   1.249156117002778E2  
 1.809700000000000E8    -6.871000408487384E1   1.090031121272414E2  
 1.824697500000000E8    -6.858857417740897E1   1.255825639788413E2  
 1.839695000000000E8    -6.670090162054338E1   1.202707707211189E2  
 1.854692500000000E8    -6.554603135625453E1   1.339328962202695E2  
 1.869690000000000E8    -6.640458720349356E1   1.340673739843138E2  
 1.884687500000000E8    -6.498733396850970E1   1.413981806584464E2  
 1.899685000000000E8    -6.428500338058655E1   1.387687594952936E2  
 1.914682500000000E8    -6.468852201180815E1   1.371327222138563E2  
 1.929680000000000E8    -6.332307568043559E1   1.227800294289287E2  
 1.944677500000000E8    -6.555045956541781E1   1.240201532242375E2  
 1.959675000000000E8    -6.274556407545774E1   1.212850598103572E2  
 1.974672500000000E8    -6.179179599707764E1   1.279998395513137E2  
 1.989670000000000E8    -6.142147826822998E1   1.015838645054460E2  
 2.004667500000000E8    -6.168095217360313E1   1.006707416651172E2  
 2.019665000000000E8    -6.457255250292320E1   1.008238067790511E2  
 2.034662500000000E8    -6.502629868119233E1   9.740686810175860E1  
 2.049660000000000E8    -6.462517889595779E1   9.902705508842992E1  
 2.064657500000000E8    -6.632569086774126E1   1.119085594184480E2  
 2.079655000000000E8    -6.478583401912971E1   1.241725885032108E2  
 2.094652500000000E8    -6.660212335386886E1   1.167198033037757E2  
 2.109650000000000E8    -6.725406794477129E1   1.278273802926622E2  
 2.124647500000000E8    -6.436170835442573E1   1.251876673125073E2  
 2.139645000000000E8    -6.426973571653475E1   1.207767092525379E2  
 2.154642500000000E8    -6.425359563481594E1   1.124183350117062E2  
 2.169640000000000E8    -6.400079284892182E1   1.238831440204271E2  
 2.184637500000000E8    -6.505734527708070E1   1.124383330398537E2  
 2.199635000000000E8    -6.467067992771007E1   1.089418990479857E2  
 2.214632500000000E8    -6.673079233909597E1   1.135189741112024E2  
 2.229630000000000E8    -6.612415859918492E1   1.287305107262623E2  
 2.244627500000000E8    -6.673109011320742E1   1.148904954331941E2  
 2.259625000000000E8    -6.780634391893888E1   1.175662598459033E2  
 2.274622500000000E8    -7.211864802386282E1   1.381489482693957E2  
 2.289620000000000E8    -7.241388822003874E1   1.607232249741520E2  
 2.304617500000000E8    -7.013786408941812E1  -1.715397152618258E2  
 2.319615000000000E8    -6.530979048574241E1  -1.648436310362425E2  
 2.334612500000000E8    -6.119210712454751E1  -1.663731957623439E2  
 2.349610000000000E8    -5.871263974968003E1  -1.672488005368045E2  
 2.364607500000000E8    -5.604851318506186E1  -1.780744725110089E2  
 2.379605000000000E8    -5.488584650120506E1   1.734590180147097E2  
 2.394602500000000E8    -5.385491698093945E1   1.599305104493105E2  
 2.409600000000000E8    -5.397057438581435E1   1.480891586483358E2  
 2.424597500000000E8    -5.389451806051506E1   1.409642900532359E2  
 2.439595000000000E8    -5.398350883851435E1   1.328904925344680E2  
 2.454592500000000E8    -5.443219483552296E1   1.273094578423785E2  
 2.469590000000000E8    -5.418365739854237E1   1.256302964909619E2  
 2.484587500000000E8    -5.491903800411988E1   1.233858200169206E2  
 2.499585000000000E8    -5.490848902975893E1   1.207326603351991E2  
 2.514582500000000E8    -5.537425151485145E1   1.143810333096883E2  
 2.529580000000000E8    -5.553580232464352E1   1.137664873056357E2  
 2.544577500000000E8    -5.556879671710746E1   1.164267090795495E2  
 2.559575000000000E8    -5.548235143349100E1   1.128800545467433E2  
 2.574572500000000E8    -5.587421639893903E1   1.133878073291912E2  
 2.589570000000000E8    -5.643159182197325E1   1.161250811254608E2  
 2.604567500000000E8    -5.666817898804668E1   1.145994384684376E2  
 2.619565000000000E8    -5.686225374412187E1   1.089163098243303E2  
 2.634562500000000E8    -5.554085652321237E1   1.099661721829245E2  
 2.649560000000000E8    -5.741086659190489E1   1.094659989205400E2  
 2.664557500000000E8    -5.632606502169436E1   1.134367409884728E2  
 2.679555000000000E8    -5.570776020383428E1   1.137030792529046E2  
 2.694552500000000E8    -5.597805921953771E1   1.104954846061791E2  
 2.709550000000000E8    -5.621068963443582E1   1.062895009402053E2  
 2.724547500000000E8    -5.571232029914362E1   1.154366580583144E2  
 2.739545000000000E8    -5.566034291920242E1   1.067194260211251E2  
 2.754542500000000E8    -5.632638177482846E1   1.102285331552312E2  
 2.769540000000000E8    -5.564129262747620E1   1.055885934436658E2  
 2.784537500000000E8    -5.619851821103585E1   1.057778364682447E2  
 2.799535000000000E8    -5.555926764464151E1   1.108026706863520E2  
 2.814532500000000E8    -5.606709759013506E1   1.077291160267408E2  
 2.829530000000000E8    -5.624834968947624E1   1.066837791885567E2  
 2.844527500000000E8    -5.574714002510066E1   1.113170464188667E2  
 2.859525000000000E8    -5.496709243831172E1   1.092470459283892E2  
 2.874522500000000E8    -5.512201345209995E1   1.099552098396821E2  
 2.889520000000000E8    -5.590553960920916E1   1.096843360441108E2  
 2.904517500000000E8    -5.557183327721845E1   1.063356406047172E2  
 2.919515000000000E8    -5.443067242681695E1   1.079639229369571E2  
 2.934512500000000E8    -5.499716919140358E1   1.082092742212827E2  
 2.949510000000000E8    -5.458565537857902E1   1.047521951672750E2  
 2.964507500000000E8    -5.475012917176144E1   1.032469880502912E2  
 2.979505000000000E8    -5.469970900227314E1   1.032119079973442E2  
 2.994502500000000E8    -5.442880398667258E1   1.064363049055611E2  
 3.009500000000000E8    -5.417105564270036E1   1.051745796883706E2  
 3.024497500000000E8    -5.434831883314643E1   1.076597787399000E2  
 3.039495000000000E8    -5.416584425605335E1   1.054184985188562E2  
 3.054492500000000E8    -5.392954811094132E1   1.065615539546665E2  
 3.069490000000000E8    -5.457740354504953E1   1.031224275073465E2  
 3.084487500000000E8    -5.405850075835193E1   1.039414529843161E2  
 3.099485000000000E8    -5.435775682908209E1   1.000956266361932E2  
 3.114482500000000E8    -5.408170215069203E1   1.079218717049977E2  
 3.129480000000000E8    -5.416882455122541E1   1.017482862453034E2  
 3.144477500000000E8    -5.413269868067872E1   1.012250062859071E2  
 3.159475000000000E8    -5.398887056064072E1   1.032754102049596E2  
 3.174472500000000E8    -5.396789188873856E1   1.029451343469007E2  
 3.189470000000000E8    -5.374914430276325E1   1.001419263829498E2  
 3.204467500000000E8    -5.383360087550285E1   1.012079743241227E2  
 3.219465000000000E8    -5.390093914708929E1   1.030586197921111E2  
 3.234462500000000E8    -5.293880249116797E1   1.002654653511580E2  
 3.249460000000000E8    -5.317849537980428E1   1.019720256398845E2  
 3.264457500000000E8    -5.296672706155560E1   9.866499083271619E1  
 3.279455000000000E8    -5.318948620304677E1   1.013579139591982E2  
 3.294452500000000E8    -5.275636379047366E1   1.014806874918535E2  
 3.309450000000000E8    -5.294669784892175E1   1.019301884748683E2  
 3.324447500000000E8    -5.298712571972648E1   1.041057475572596E2  
 3.339445000000000E8    -5.303812173907250E1   1.000398008364092E2  
 3.354442500000000E8    -5.256029232735994E1   1.057993726063918E2  
 3.369440000000000E8    -5.196819169069410E1   1.022350911699674E2  
 3.384437500000000E8    -5.211102082744213E1   1.028046677414528E2  
 3.399435000000000E8    -5.162423764123795E1   1.008024359521520E2  
 3.414432500000000E8    -5.162380874767496E1   9.975661750420281E1  
 3.429430000000000E8    -5.133403308149992E1   1.025444085934542E2  
 3.444427500000000E8    -5.113817772080915E1   9.782388068820967E1  
 3.459425000000000E8    -5.090780142560550E1   9.855797527121368E1  
 3.474422500000000E8    -5.060513895235115E1   1.015803826211423E2  
 3.489420000000000E8    -5.136459931129836E1   9.325846507534384E1  
 3.504417500000000E8    -5.085562727463222E1   9.516402298762161E1  
 3.519415000000000E8    -5.084138318031712E1   9.649318913129710E1  
 3.534412500000000E8    -5.072765458367285E1   9.428228972042167E1  
 3.549410000000000E8    -5.107436205394628E1   9.442522516064214E1  
 3.564407500000000E8    -5.059313930126702E1   9.137487539751928E1  
 3.579405000000000E8    -5.070729368232421E1   9.284791744137041E1  
 3.594402500000000E8    -5.083484740504724E1   8.968295467949916E1  
 3.609400000000000E8    -5.056722523448909E1   8.821373028954884E1  
 3.624397500000000E8    -5.083624502066108E1   9.055184957358171E1  
 3.639395000000000E8    -5.054264056409087E1   8.775015399601156E1  
 3.654392500000000E8    -5.073728894079711E1   8.719856355270343E1  
 3.669390000000000E8    -5.036954185890628E1   9.094457937290451E1  
 3.684387500000000E8    -5.004502445371924E1   8.553745684358441E1  
 3.699385000000000E8    -5.040493344431380E1   8.710230137663622E1  
 3.714382500000000E8    -5.012578230294071E1   8.641972805772925E1  
 3.729380000000000E8    -4.952395601670714E1   8.748380367254147E1  
 3.744377500000000E8    -4.994511510369505E1   8.653538492890235E1  
 3.759375000000000E8    -5.006544340301713E1   8.447461086524054E1  
 3.774372500000000E8    -5.009745898420069E1   8.589125556965435E1  
 3.789370000000000E8    -4.978290059682863E1   8.427243562205111E1  
 3.804367500000000E8    -4.967167705082620E1   8.330958041320481E1  
 3.819365000000000E8    -4.974821541564177E1   8.612751448951227E1  
 3.834362500000000E8    -4.963588351731186E1   8.659963542713022E1  
 3.849360000000000E8    -4.938628534724036E1   8.573098325907856E1  
 3.864357500000000E8    -4.959743009251794E1   8.304486909040426E1  
 3.879355000000000E8    -4.961967441076168E1   8.644556046156482E1  
 3.894352500000000E8    -4.905826558085349E1   8.216825714197167E1  
 3.909350000000000E8    -4.935340214829814E1   8.261862334018757E1  
 3.924347500000000E8    -4.928617052045727E1   7.836570152947689E1  
 3.939345000000000E8    -4.914473916760507E1   7.997807927081804E1  
 3.954342500000000E8    -4.885312663007917E1   8.125923956136509E1  
 3.969340000000000E8    -4.871967595583559E1   7.876399267907173E1  
 3.984337500000000E8    -4.904960878666848E1   7.824377299803942E1  
 3.999335000000000E8    -4.886576727772943E1   7.881319271144395E1  
 4.014332500000000E8    -4.883499661754846E1   7.864574862262377E1  
 4.029330000000000E8    -4.873088590809488E1   7.875846419895562E1  
 4.044327500000000E8    -4.858699717311998E1   7.768142629439542E1  
 4.059325000000000E8    -4.838952537791173E1   7.909719953262550E1  
 4.074322500000000E8    -4.853244173978246E1   7.681450923242007E1  
 4.089320000000000E8    -4.868684834938724E1   7.650667462607171E1  
 4.104317500000000E8    -4.819334802395298E1   7.687638211495793E1  
 4.119315000000000E8    -4.781388975492270E1   7.716807945326947E1  
 4.134312500000000E8    -4.841201414662015E1   7.361193320864602E1  
 4.149310000000000E8    -4.820772923337183E1   7.483693283175445E1  
 4.164307500000000E8    -4.775145657400675E1   7.544671301177257E1  
 4.179305000000000E8    -4.773293264197922E1   7.274155536082412E1  
 4.194302500000000E8    -4.759937632368018E1   7.478609929530140E1  
 4.209300000000000E8    -4.776546907624266E1   7.228438342713938E1  
 4.224297500000000E8    -4.761202847735355E1   7.273138815469888E1  
 4.239295000000000E8    -4.772770023505360E1   7.150209768837816E1  
 4.254292500000000E8    -4.791764454550653E1   7.096151485946650E1  
 4.269290000000000E8    -4.745994938916297E1   7.075875042511164E1  
 4.284287500000000E8    -4.763520353776731E1   7.169160309971987E1  
 4.299285000000000E8    -4.743627841092904E1   7.056571999350805E1  
 4.314282500000000E8    -4.696678917123957E1   6.823106415059193E1  
 4.329280000000000E8    -4.692325336330426E1   6.693857670099594E1  
