#  HZ   S   DB   R     50.0 
! Rohde & Schwarz ZVL 
! 
! 
! 
 1.000000000000000E6    -5.645981872211529E1   5.709990963198588E1  
 2.499750000000000E6    -6.424367216838667E1   9.162397472797883E1  
 3.999500000000000E6    -5.937629018601172E1   1.072506913572491E2  
 5.499250000000000E6    -4.504060252556081E1   7.799042742131940E1  
 6.999000000000000E6    -4.004053509050547E1   8.107361609052505E1  
 8.498750000000000E6    -3.011158764710234E1   1.105162924531237E2  
 9.998500000000000E6    -1.764952696129826E1   6.283931821737910E1  
 1.149825000000000E7    -1.247903475946834E1  -9.754041471026724E1  
 1.299800000000000E7    -1.977418399528598E1  -1.063135572902804E2  
 1.449775000000000E7    -2.413632346704055E1  -8.439304139645201E1  
 1.599750000000000E7    -2.177861234939207E1  -1.042468521524308E2  
 1.749725000000000E7    -2.349396741747077E1  -1.127438635046389E2  
 1.899700000000000E7    -2.495488074279042E1  -1.157002363734486E2  
 2.049675000000000E7    -2.573548080362289E1  -1.177780777084709E2  
 2.199650000000000E7    -3.271450557440554E1  -1.487827015869469E2  
 2.349625000000000E7    -3.020112516071684E1  -8.443685882664757E1  
 2.499600000000000E7    -2.133107420641129E1  -1.311273116245420E1  
 2.649575000000000E7    -1.213194036733515E1  -1.011634386384954E2  
 2.799550000000000E7    -1.680947639697948E1  -1.244300656241966E2  
 2.949525000000000E7    -1.767245556145175E1  -1.390614907966477E2  
 3.099500000000000E7    -1.786118870306757E1  -1.392851445874771E2  
 3.249475000000000E7    -1.922509659739727E1  -1.503632428087107E2  
 3.399450000000000E7    -2.212719559222061E1  -1.558942891021166E2  
 3.549425000000000E7    -2.308628010842858E1  -1.491807670116941E2  
 3.699400000000000E7    -2.126663980534520E1  -1.437102624357312E2  
 3.849375000000000E7    -2.246887473161785E1  -1.525725455112080E2  
 3.999350000000000E7    -2.316917777796309E1  -1.520797103640876E2  
 4.149325000000000E7    -2.344992426689739E1  -1.497862184584026E2  
 4.299300000000000E7    -2.377473234297814E1  -1.506511884509822E2  
 4.449275000000000E7    -2.381250935118914E1  -1.474040391135472E2  
 4.599250000000000E7    -2.397452022682808E1  -1.466898115588729E2  
 4.749225000000000E7    -2.384074868222917E1  -1.453703355364368E2  
 4.899200000000000E7    -2.428695556169930E1  -1.485213343427845E2  
 5.049175000000000E7    -2.437881542861536E1  -1.467771986308061E2  
 5.199150000000000E7    -2.453069900818516E1  -1.453774963030178E2  
 5.349125000000000E7    -2.463185961314576E1  -1.444676672142517E2  
 5.499100000000000E7    -2.482112923880448E1  -1.415195476792294E2  
 5.649075000000000E7    -2.488328414001479E1  -1.429061872707587E2  
 5.799050000000000E7    -2.508351407643167E1  -1.416900720705318E2  
 5.949025000000000E7    -2.475739533342264E1  -1.381261378660026E2  
 6.099000000000000E7    -2.472419156152217E1  -1.382939087966310E2  
 6.248975000000000E7    -2.470927448018674E1  -1.380522827450309E2  
 6.398950000000000E7    -2.479438238127444E1  -1.372434837755479E2  
 6.548925000000000E7    -2.483969201555815E1  -1.365614867901170E2  
 6.698900000000000E7    -2.492147788798877E1  -1.354902566614983E2  
 6.848875000000000E7    -2.495614507847446E1  -1.343029615173805E2  
 6.998850000000000E7    -2.497323595993538E1  -1.328870190191269E2  
 7.148825000000000E7    -2.493499366742354E1  -1.320427915971862E2  
 7.298800000000000E7    -2.492882824909972E1  -1.308866812465514E2  
 7.448775000000000E7    -2.493200786268059E1  -1.296740045609617E2  
 7.598750000000000E7    -2.499625340435406E1  -1.283063383199033E2  
 7.748725000000000E7    -2.504499440834954E1  -1.281344418134481E2  
 7.898700000000000E7    -2.491354397960691E1  -1.253521281929130E2  
 8.048675000000000E7    -2.491582071774356E1  -1.238774322014800E2  
 8.198650000000000E7    -2.480068981638841E1  -1.219102557657683E2  
 8.348625000000000E7    -2.473651144142417E1  -1.205297640130585E2  
 8.498600000000000E7    -2.464689961140890E1  -1.189678664645077E2  
 8.648575000000000E7    -2.459214484015655E1  -1.169530014785823E2  
 8.798550000000000E7    -2.447919429528005E1  -1.151396004993590E2  
 8.948525000000000E7    -2.429941580595766E1  -1.132117530209018E2  
 9.098500000000000E7    -2.409180594974519E1  -1.114712723442511E2  
 9.248475000000000E7    -2.389117064052271E1  -1.092773500894093E2  
 9.398450000000000E7    -2.353964567196961E1  -1.080666255850045E2  
 9.548425000000000E7    -2.324880626847866E1  -1.076215875354898E2  
 9.698400000000000E7    -2.315392105954835E1  -1.057778434879155E2  
 9.848375000000000E7    -2.291074272002980E1  -1.034998314426941E2  
 9.998350000000000E7    -2.257486726443014E1  -9.965990532046862E1  
 1.014832500000000E8    -2.180382719524524E1  -9.636856389779811E1  
 1.029830000000000E8    -2.048142653752283E1  -9.386362579327259E1  
 1.044827500000000E8    -1.832433819104555E1  -9.869978407265303E1  
 1.059825000000000E8    -1.745786122815187E1  -1.166549850284243E2  
 1.074822500000000E8    -1.950742304567987E1  -1.294120917169991E2  
 1.089820000000000E8    -2.094634453131756E1  -1.275039014361215E2  
 1.104817500000000E8    -2.175822433290487E1  -1.243775323666801E2  
 1.119815000000000E8    -2.215606474183642E1  -1.210014609016133E2  
 1.134812500000000E8    -2.231441000733586E1  -1.172702887380704E2  
 1.149810000000000E8    -2.225947360541493E1  -1.141014368049020E2  
 1.164807500000000E8    -2.217769264845769E1  -1.125012236364675E2  
 1.179805000000000E8    -2.219646055909198E1  -1.111596621869587E2  
 1.194802500000000E8    -2.211956669610796E1  -1.089540967316966E2  
 1.209800000000000E8    -2.193842556372390E1  -1.071747558545067E2  
 1.224797500000000E8    -2.185821547020995E1  -1.051327397440308E2  
 1.239795000000000E8    -2.171820429561363E1  -1.041962178553817E2  
 1.254792500000000E8    -2.153176989109027E1  -1.023320784212497E2  
 1.269790000000000E8    -2.131128384951029E1  -1.016324074029362E2  
 1.284787500000000E8    -2.121500143862522E1  -1.004903418825834E2  
 1.299785000000000E8    -2.097455907325327E1  -9.914478969986189E1  
 1.314782500000000E8    -2.080178308286074E1  -9.854082485376225E1  
 1.329780000000000E8    -2.065812818643729E1  -9.724614511102593E1  
 1.344777500000000E8    -2.048552127341452E1  -9.622494937478082E1  
 1.359775000000000E8    -2.030793942218923E1  -9.559418310093199E1  
 1.374772500000000E8    -2.010159458194984E1  -9.483785766445867E1  
 1.389770000000000E8    -1.994016621323394E1  -9.438951626558701E1  
 1.404767500000000E8    -1.975295111527761E1  -9.379829039619841E1  
 1.419765000000000E8    -1.962529668804936E1  -9.317777366122309E1  
 1.434762500000000E8    -1.941315265293439E1  -9.155479716873145E1  
 1.449760000000000E8    -1.924892890757967E1  -9.129219189337555E1  
 1.464757500000000E8    -1.903669702691412E1  -9.030790277516364E1  
 1.479755000000000E8    -1.882275101912179E1  -8.963016328986642E1  
 1.494752500000000E8    -1.867285988609763E1  -8.960639259749252E1  
 1.509750000000000E8    -1.843786938501988E1  -8.900510791238631E1  
 1.524747500000000E8    -1.825915219239036E1  -8.871317734751197E1  
 1.539745000000000E8    -1.800963370176035E1  -8.753322092395482E1  
 1.554742500000000E8    -1.784968278133949E1  -8.779851636578765E1  
 1.569740000000000E8    -1.763431187793880E1  -8.701199145449016E1  
 1.584737500000000E8    -1.744626301424723E1  -8.707408660929855E1  
 1.599735000000000E8    -1.721620937399416E1  -8.619235822019428E1  
 1.614732500000000E8    -1.705969294334063E1  -8.618013812619995E1  
 1.629730000000000E8    -1.688080281309928E1  -8.562311694833527E1  
 1.644727500000000E8    -1.665711422523992E1  -8.590554177820418E1  
 1.659725000000000E8    -1.647743695614961E1  -8.553808536132050E1  
 1.674722500000000E8    -1.625308244382138E1  -8.521622610227689E1  
 1.689720000000000E8    -1.609220512607886E1  -8.495554369045442E1  
 1.704717500000000E8    -1.593275853896378E1  -8.468420535097370E1  
 1.719715000000000E8    -1.568049111768364E1  -8.453621653878783E1  
 1.734712500000000E8    -1.554347987385359E1  -8.426055531987417E1  
 1.749710000000000E8    -1.536730412078541E1  -8.396165230519807E1  
 1.764707500000000E8    -1.513275873601046E1  -8.388612035819941E1  
 1.779705000000000E8    -1.494059884494813E1  -8.385964531250622E1  
 1.794702500000000E8    -1.472230077220261E1  -8.360959040505645E1  
 1.809700000000000E8    -1.448932080298760E1  -8.346277765900311E1  
 1.824697500000000E8    -1.428715222121210E1  -8.379714980775715E1  
 1.839695000000000E8    -1.413995476175002E1  -8.347227397399631E1  
 1.854692500000000E8    -1.393168782205909E1  -8.347228486264095E1  
 1.869690000000000E8    -1.373758990443867E1  -8.359836551575259E1  
 1.884687500000000E8    -1.354767770679184E1  -8.313916080724056E1  
 1.899685000000000E8    -1.335504602715069E1  -8.340528817238636E1  
 1.914682500000000E8    -1.319429326540377E1  -8.350594693795053E1  
 1.929680000000000E8    -1.298812212010255E1  -8.385755226100214E1  
 1.944677500000000E8    -1.281647333018773E1  -8.370871614677809E1  
 1.959675000000000E8    -1.266453265673459E1  -8.382830521136486E1  
 1.974672500000000E8    -1.244378925132070E1  -8.408232584385142E1  
 1.989670000000000E8    -1.233977928501466E1  -8.401371034901210E1  
 2.004667500000000E8    -1.213174221998806E1  -8.439634769789049E1  
 2.019665000000000E8    -1.196681403380312E1  -8.445087010500357E1  
 2.034662500000000E8    -1.177100912024066E1  -8.442521528295795E1  
 2.049660000000000E8    -1.159770177706775E1  -8.479979440292583E1  
 2.064657500000000E8    -1.143490038349657E1  -8.478302854187486E1  
 2.079655000000000E8    -1.121810755209238E1  -8.495348713278565E1  
 2.094652500000000E8    -1.102558963612085E1  -8.506774709977648E1  
 2.109650000000000E8    -1.087453386551560E1  -8.535593157810011E1  
 2.124647500000000E8    -1.066621015463800E1  -8.551869201946967E1  
 2.139645000000000E8    -1.048015917185002E1  -8.603510761516073E1  
 2.154642500000000E8    -1.032492759658399E1  -8.621962782181370E1  
 2.169640000000000E8    -1.015053846245142E1  -8.619399170389396E1  
 2.184637500000000E8    -9.961925595982082  -8.686068773386538E1  
 2.199635000000000E8    -9.802889979084361  -8.672623753035379E1  
 2.214632500000000E8    -9.650719310274832  -8.742508050172077E1  
 2.229630000000000E8    -9.429798334023436  -8.728914223492450E1  
 2.244627500000000E8    -9.268022790643702  -8.777260472761884E1  
 2.259625000000000E8    -9.149966185162876  -8.782678988531052E1  
 2.274622500000000E8    -8.978640639319632  -8.849894935558980E1  
 2.289620000000000E8    -8.749413368052570  -8.887534659790599E1  
 2.304617500000000E8    -8.592293591793998  -8.898054027362088E1  
 2.319615000000000E8    -8.368107134213314  -8.959604742737216E1  
 2.334612500000000E8    -8.218760653855746  -8.995719093478920E1  
 2.349610000000000E8    -8.014498279555513  -9.079751157650462E1  
 2.364607500000000E8    -7.904259005064455  -9.166945532871549E1  
 2.379605000000000E8    -7.775907258018983  -9.232273471017989E1  
 2.394602500000000E8    -7.663665148675015  -9.337360442717844E1  
 2.409600000000000E8    -7.638872485193085  -9.394545270715909E1  
 2.424597500000000E8    -7.487143500289468  -9.426061502781050E1  
 2.439595000000000E8    -7.411854816691212  -9.457369822894523E1  
 2.454592500000000E8    -7.296245585898657  -9.466568745960359E1  
 2.469590000000000E8    -7.184778954291590  -9.461485665219226E1  
 2.484587500000000E8    -7.029019936502888  -9.539396378042099E1  
 2.499585000000000E8    -6.928074249970639  -9.560614929642838E1  
 2.514582500000000E8    -6.812442243682790  -9.594997153059532E1  
 2.529580000000000E8    -6.629063424381378  -9.602225701540267E1  
 2.544577500000000E8    -6.502004885894556  -9.650472760349072E1  
 2.559575000000000E8    -6.359139335564717  -9.685102069080108E1  
 2.574572500000000E8    -6.225834370456640  -9.740719950522146E1  
 2.589570000000000E8    -6.114829735807811  -9.746771665559513E1  
 2.604567500000000E8    -5.933419416489426  -9.774264386270194E1  
 2.619565000000000E8    -5.794817969097619  -9.831044668514225E1  
 2.634562500000000E8    -5.617222228335519  -9.842706108765442E1  
 2.649560000000000E8    -5.526587833104753  -9.932984200569187E1  
 2.664557500000000E8    -5.363834846025347  -9.963909069430603E1  
 2.679555000000000E8    -5.232607630611222  -9.987236179464840E1  
 2.694552500000000E8    -5.087592935588737  -1.004643850085952E2  
 2.709550000000000E8    -4.982230174230352  -1.010156685065548E2  
 2.724547500000000E8    -4.831307551656133  -1.013870171098985E2  
 2.739545000000000E8    -4.729401328205078  -1.019458791451533E2  
 2.754542500000000E8    -4.598213287593107  -1.024286992287533E2  
 2.769540000000000E8    -4.474344720104609  -1.029775695995599E2  
 2.784537500000000E8    -4.356517318792682  -1.035801587868252E2  
 2.799535000000000E8    -4.204716868085864  -1.040394926300676E2  
 2.814532500000000E8    -4.097428523048003  -1.044906108620367E2  
 2.829530000000000E8    -3.969735191388156  -1.051349000112818E2  
 2.844527500000000E8    -3.825914475958500  -1.053279372723966E2  
 2.859525000000000E8    -3.705422361047426  -1.059155510620533E2  
 2.874522500000000E8    -3.590579071888747  -1.063492059955037E2  
 2.889520000000000E8    -3.485407108018089  -1.066995175269486E2  
 2.904517500000000E8    -3.327951537924181  -1.074132128030241E2  
 2.919515000000000E8    -3.236263515310187  -1.081291676742456E2  
 2.934512500000000E8    -3.101066173085983  -1.085166431309456E2  
 2.949510000000000E8    -2.981408191312656  -1.094097701835277E2  
 2.964507500000000E8    -2.860276035341654  -1.099018533143242E2  
 2.979505000000000E8    -2.756315433260085  -1.105477911142284E2  
 2.994502500000000E8    -2.671537896277269  -1.110841022659186E2  
 3.009500000000000E8    -2.526656534622967  -1.119786236884035E2  
 3.024497500000000E8    -2.424593105288735  -1.122878457343720E2  
 3.039495000000000E8    -2.324624976946253  -1.130543779105782E2  
 3.054492500000000E8    -2.192062558873819  -1.137677046160211E2  
 3.069490000000000E8    -2.116913953397003  -1.141005534851779E2  
 3.084487500000000E8    -1.988904331069671  -1.147365220412270E2  
 3.099485000000000E8    -1.882883696985502  -1.153279790154889E2  
 3.114482500000000E8    -1.776353913044251  -1.158161738820203E2  
 3.129480000000000E8    -1.655313277282664  -1.162622125237328E2  
 3.144477500000000E8    -1.564114510317101  -1.167017004370384E2  
 3.159475000000000E8    -1.472461911800614  -1.176634193967855E2  
 3.174472500000000E8    -1.348550627834584  -1.178750510741345E2  
 3.189470000000000E8    -1.224119984223661  -1.185491902592114E2  
 3.204467500000000E8    -1.111505831270592  -1.194263306867381E2  
 3.219465000000000E8    -1.046849692485725  -1.198466260040064E2  
 3.234462500000000E8    -9.286936595443075E-1  -1.203717920847464E2  
 3.249460000000000E8    -8.320447639963162E-1  -1.211325099040592E2  
 3.264457500000000E8    -7.486769579465549E-1  -1.215220360418086E2  
 3.279455000000000E8    -6.428305796003219E-1  -1.221945721768545E2  
 3.294452500000000E8    -5.369420780802123E-1  -1.230122238621908E2  
 3.309450000000000E8    -4.620715453181652E-1  -1.233862122530291E2  
 3.324447500000000E8    -3.724523450543646E-1  -1.239683148414241E2  
 3.339445000000000E8    -2.596361292573770E-1  -1.249530961397253E2  
 3.354442500000000E8    -1.567204975543514E-1  -1.252897286433856E2  
 3.369440000000000E8    -8.268180213216635E-2  -1.262460884507027E2  
 3.384437500000000E8     1.684320628409506E-2  -1.268037744744649E2  
 3.399435000000000E8     1.192393316775671E-1  -1.273681468027079E2  
 3.414432500000000E8     1.956225079528265E-1  -1.283449514893939E2  
 3.429430000000000E8     2.884951318214363E-1  -1.287908477159490E2  
 3.444427500000000E8     3.885417396632482E-1  -1.295313652879495E2  
 3.459425000000000E8     4.729256449227142E-1  -1.302635052920735E2  
 3.474422500000000E8     5.537607474427505E-1  -1.308053054778420E2  
 3.489420000000000E8     6.260069297165332E-1  -1.317091502379606E2  
 3.504417500000000E8     7.297434691234845E-1  -1.321492156084492E2  
 3.519415000000000E8     8.045709823702046E-1  -1.328692953291996E2  
 3.534412500000000E8     9.008208681511208E-1  -1.332567822151520E2  
 3.549410000000000E8     9.824943565297588E-1  -1.340876484205263E2  
 3.564407500000000E8     1.064580640184255  -1.346311811379202E2  
 3.579405000000000E8     1.181444343202666  -1.351925316159572E2  
 3.594402500000000E8     1.214873279318299  -1.357467575415560E2  
 3.609400000000000E8     1.321617351669756  -1.363096591321618E2  
 3.624397500000000E8     1.420919510871451  -1.372144325913902E2  
 3.639395000000000E8     1.487588835813970  -1.378478549729416E2  
 3.654392500000000E8     1.557776719558058  -1.384890569516880E2  
 3.669390000000000E8     1.624304816903364  -1.392194852309347E2  
 3.684387500000000E8     1.714320517531419  -1.396246868143391E2  
 3.699385000000000E8     1.793989862026925  -1.406039909584768E2  
 3.714382500000000E8     1.879460910639185  -1.411986776860426E2  
 3.729380000000000E8     1.963320330261435  -1.416194651788672E2  
 3.744377500000000E8     2.031300834197947  -1.424905160189584E2  
 3.759375000000000E8     2.105496341949668  -1.431181021704077E2  
 3.774372500000000E8     2.190747494041200  -1.436718431147719E2  
 3.789370000000000E8     2.258946935544787  -1.446959208044353E2  
 3.804367500000000E8     2.321889958713346  -1.451935403096541E2  
 3.819365000000000E8     2.434227398528456  -1.459251102866685E2  
 3.834362500000000E8     2.482313096723556  -1.468080181825162E2  
 3.849360000000000E8     2.551833281259989  -1.474152444465461E2  
 3.864357500000000E8     2.623589513023369  -1.480121675606823E2  
 3.879355000000000E8     2.699938800029350  -1.483953990056321E2  
 3.894352500000000E8     2.764209011747060  -1.491815576592519E2  
 3.909350000000000E8     2.845983907774614  -1.498857143667945E2  
 3.924347500000000E8     2.921256819966374  -1.505367765589365E2  
 3.939345000000000E8     2.976173715207153  -1.509693524082504E2  
 3.954342500000000E8     3.044728707471773  -1.519141430839257E2  
 3.969340000000000E8     3.130812374841800  -1.526027677746272E2  
 3.984337500000000E8     3.211449038484375  -1.530148759727484E2  
 3.999335000000000E8     3.245931734432382  -1.538316862688288E2  
 4.014332500000000E8     3.311258342591321  -1.545641409999449E2  
 4.029330000000000E8     3.362874726364465  -1.553115658832829E2  
 4.044327500000000E8     3.450974847092653  -1.560776150147056E2  
 4.059325000000000E8     3.509293713405529  -1.567753139792212E2  
 4.074322500000000E8     3.570674405727304  -1.574448670085710E2  
 4.089320000000000E8     3.613525671175059  -1.579637213055592E2  
 4.104317500000000E8     3.696454833503750  -1.587916691134250E2  
 4.119315000000000E8     3.754932930908532  -1.594441291005818E2  
 4.134312500000000E8     3.787134593521708  -1.601973924137529E2  
 4.149310000000000E8     3.861628057057416  -1.608393824722773E2  
 4.164307500000000E8     3.924196222091683  -1.615285877843772E2  
 4.179305000000000E8     3.960545153620386  -1.621730384803628E2  
 4.194302500000000E8     4.038284063452985  -1.629076153897659E2  
 4.209300000000000E8     4.094444135406533  -1.639284768871202E2  
 4.224297500000000E8     4.163445825022380  -1.644550886149446E2  
 4.239295000000000E8     4.213536516151908  -1.652001543474066E2  
 4.254292500000000E8     4.277556988889460  -1.659624040534151E2  
 4.269290000000000E8     4.347923543960105  -1.666438924322602E2  
 4.284287500000000E8     4.375432580942576  -1.672238625543475E2  
 4.299285000000000E8     4.443108216330303  -1.680215518418243E2  
 4.314282500000000E8     4.501911928219157  -1.688015342971949E2  
 4.329280000000000E8     4.555257234130170  -1.693630198481685E2  
 4.344277500000000E8     4.606171376894611  -1.699908393170088E2  
 4.359275000000000E8     4.667143317833856  -1.705064809931388E2  
 4.374272500000000E8     4.710845097444881  -1.716835292804400E2  
