#  HZ   S   DB   R     50.0 
! Rohde & Schwarz ZVL 
! 
! 
! 
 1.000000000000000E6    -4.626861813801633E-2   1.863214920690215E-2  
 2.499750000000000E6     1.571423772844507E-2  -1.139362090994708  
 3.999500000000000E6     1.231486208840271E-1  -1.764907142065195  
 5.499250000000000E6    -4.068200790857766E-2  -3.127091585631014  
 6.999000000000000E6     1.006658525413217E-2  -3.859735481789782  
 8.498750000000000E6    -5.632382189160856E-2  -4.588210798308485  
 9.998500000000000E6     4.986924706973337E-2  -5.366919094522089  
 1.149825000000000E7     1.754388703604923E-1  -6.905698377511860  
 1.299800000000000E7     2.962145618533496E-1  -7.885402862685627  
 1.449775000000000E7    -5.368337459437903E-2  -7.823867875196449  
 1.599750000000000E7    -5.602479726829828E-2  -8.044087148304518  
 1.749725000000000E7    -1.670471910137255E-1  -8.860294494024855  
 1.899700000000000E7    -1.137038894983006E-1  -9.784155489605485  
 2.049675000000000E7    -1.729786067843015E-1  -1.040055569255854E1  
 2.199650000000000E7     1.526271669949928E-1  -1.213930602426075E1  
 2.349625000000000E7    -1.067315432554433E-1  -1.191656538359750E1  
 2.499600000000000E7    -1.098539694898504E-1  -1.297536220208380E1  
 2.649575000000000E7    -4.425299625173481E-1  -1.276128689141452E1  
 2.799550000000000E7    -3.052540230537347E-1  -1.337638230420362E1  
 2.949525000000000E7    -2.451481140328445E-1  -1.389069382956959E1  
 3.099500000000000E7    -2.817575613399115E-1  -1.484911492862041E1  
 3.249475000000000E7    -4.028179601508751E-1  -1.512078234186567E1  
 3.399450000000000E7    -2.720099609591832E-1  -1.652938390951713E1  
 3.549425000000000E7    -2.468066798207910E-1  -1.755709196954346E1  
 3.699400000000000E7    -2.766771894504592E-1  -1.806718146071482E1  
 3.849375000000000E7    -2.607479389414926E-1  -1.882421215199926E1  
 3.999350000000000E7    -2.816549285129307E-1  -1.956213255106983E1  
 4.149325000000000E7    -3.063040952478733E-1  -2.057214836133374E1  
 4.299300000000000E7    -4.076161889105644E-1  -2.114451764365021E1  
 4.449275000000000E7    -4.137785699062130E-1  -2.150283305328428E1  
 4.599250000000000E7    -4.143544338510264E-1  -2.292487497972369E1  
 4.749225000000000E7    -4.500896515752553E-1  -2.340629785545005E1  
 4.899200000000000E7    -4.620838396794802E-1  -2.413417948012848E1  
 5.049175000000000E7    -5.242189456648037E-1  -2.455064976079044E1  
 5.199150000000000E7    -5.231301554293607E-1  -2.553479118782734E1  
 5.349125000000000E7    -5.311160223056514E-1  -2.646692906336894E1  
 5.499100000000000E7    -5.711817498511177E-1  -2.711328989247847E1  
 5.649075000000000E7    -6.108936472467614E-1  -2.751940626817156E1  
 5.799050000000000E7    -6.479355742592251E-1  -2.796034220623409E1  
 5.949025000000000E7    -6.790041559262781E-1  -2.883616846850577E1  
 6.099000000000000E7    -7.050661616426378E-1  -2.922824689581892E1  
 6.248975000000000E7    -7.295277279757044E-1  -3.020612084410686E1  
 6.398950000000000E7    -7.763619070544297E-1  -3.063783396279640E1  
 6.548925000000000E7    -7.973047898089358E-1  -3.131822110094794E1  
 6.698900000000000E7    -8.498099301928921E-1  -3.190624851722364E1  
 6.848875000000000E7    -8.735480791815745E-1  -3.288244864149228E1  
 6.998850000000000E7    -9.166036835047784E-1  -3.360064989006811E1  
 7.148825000000000E7    -9.547372121342489E-1  -3.400970944764261E1  
 7.298800000000000E7    -9.861601487125408E-1  -3.455610561569349E1  
 7.448775000000000E7    -9.800558094351476E-1  -3.528290612934770E1  
 7.598750000000000E7    -1.067610962420044  -3.623559307334271E1  
 7.748725000000000E7    -1.064260643348183  -3.611569958749686E1  
 7.898700000000000E7    -1.162121959347932  -3.712899711907233E1  
 8.048675000000000E7    -1.132773629486587  -3.775291722565748E1  
 8.198650000000000E7    -1.215142498605906  -3.861246369477344E1  
 8.348625000000000E7    -1.254303477178052  -3.882048121518915E1  
 8.498600000000000E7    -1.299977349697804  -3.980792305055076E1  
 8.648575000000000E7    -1.321841215914216  -4.023084798383497E1  
 8.798550000000000E7    -1.403726675617511  -4.108653875044605E1  
 8.948525000000000E7    -1.428201506679933  -4.160008521179939E1  
 9.098500000000000E7    -1.425080396861024  -4.190010379044372E1  
 9.248475000000000E7    -1.493001549046092  -4.264903304164189E1  
 9.398450000000000E7    -1.564137348611145  -4.332905837205198E1  
 9.548425000000000E7    -1.667079194491089  -4.418310776998504E1  
 9.698400000000000E7    -1.695695216190166  -4.422667610708437E1  
 9.848375000000000E7    -1.695621078516332  -4.497660094159098E1  
 9.998350000000000E7    -1.787670859765354  -4.601489557478872E1  
 1.014832500000000E8    -1.846450458120901  -4.623984357825320E1  
 1.029830000000000E8    -1.937186721980799  -4.640604790549351E1  
 1.044827500000000E8    -1.994984332600057  -4.669485370451018E1  
 1.059825000000000E8    -1.921155773162518  -4.685728286656315E1  
 1.074822500000000E8    -1.884106450862683  -4.783741201902092E1  
 1.089820000000000E8    -1.895167080319710  -4.861307526321086E1  
 1.104817500000000E8    -2.024031046382184  -4.946276661104893E1  
 1.119815000000000E8    -1.998744540324739  -5.005991079112359E1  
 1.134812500000000E8    -2.078636960093437  -5.096188995191712E1  
 1.149810000000000E8    -2.084190338035845  -5.119247040843363E1  
 1.164807500000000E8    -2.154640502293659  -5.198698271986800E1  
 1.179805000000000E8    -2.173585712295823  -5.250073259158720E1  
 1.194802500000000E8    -2.271838954894404  -5.282885654704877E1  
 1.209800000000000E8    -2.295676112770027  -5.352760702373175E1  
 1.224797500000000E8    -2.359145504746861  -5.371946710183261E1  
 1.239795000000000E8    -2.453548457337512  -5.456431729590739E1  
 1.254792500000000E8    -2.507795652741694  -5.479940467746037E1  
 1.269790000000000E8    -2.518851630228870  -5.513261122880183E1  
 1.284787500000000E8    -2.583605051771399  -5.652243243447121E1  
 1.299785000000000E8    -2.696794338550440  -5.662678156677893E1  
 1.314782500000000E8    -2.702786834651148  -5.742799723861640E1  
 1.329780000000000E8    -2.752884577804450  -5.778068524340903E1  
 1.344777500000000E8    -2.831608667042791  -5.806751103168923E1  
 1.359775000000000E8    -2.866827842329487  -5.884493298807907E1  
 1.374772500000000E8    -2.939669095060796  -5.930418514610368E1  
 1.389770000000000E8    -2.942898538842457  -5.994981468428800E1  
 1.404767500000000E8    -3.017003171299371  -6.053873345962979E1  
 1.419765000000000E8    -3.044107836858498  -6.092756352936699E1  
 1.434762500000000E8    -3.068987432940080  -6.191268904370961E1  
 1.449760000000000E8    -3.152949067267588  -6.172791729078419E1  
 1.464757500000000E8    -3.244074176810082  -6.247265557521374E1  
 1.479755000000000E8    -3.258239352863409  -6.232879881257697E1  
 1.494752500000000E8    -3.327497570808963  -6.314552547057198E1  
 1.509750000000000E8    -3.407019491919103  -6.345778159218310E1  
 1.524747500000000E8    -3.470929800195515  -6.389475549772737E1  
 1.539745000000000E8    -3.447007693815066  -6.457018655724451E1  
 1.554742500000000E8    -3.580891180646315  -6.470058986121531E1  
 1.569740000000000E8    -3.604458639981670  -6.544169152831823E1  
 1.584737500000000E8    -3.686630438585929  -6.576880338553023E1  
 1.599735000000000E8    -3.698705443011189  -6.635086340315392E1  
 1.614732500000000E8    -3.798545218369417  -6.656678849074321E1  
 1.629730000000000E8    -3.883188237155097  -6.740567246704356E1  
 1.644727500000000E8    -3.851274908325690  -6.751616530600207E1  
 1.659725000000000E8    -3.910606693936335  -6.766513943686925E1  
 1.674722500000000E8    -3.982513295426825  -6.860998175496560E1  
 1.689720000000000E8    -4.042407876129799  -6.906031764537578E1  
 1.704717500000000E8    -4.088140302809074  -6.967253736578532E1  
 1.719715000000000E8    -4.144229664606026  -6.972603563529820E1  
 1.734712500000000E8    -4.247719645484533  -7.020184317305763E1  
 1.749710000000000E8    -4.213095527527978  -7.042586872234028E1  
 1.764707500000000E8    -4.285539538918568  -7.068810212499470E1  
 1.779705000000000E8    -4.348667708809858  -7.141872549602725E1  
 1.794702500000000E8    -4.404691660341636  -7.125263573579289E1  
 1.809700000000000E8    -4.529551553629837  -7.170799948218044E1  
 1.824697500000000E8    -4.550872506935774  -7.189573999834084E1  
 1.839695000000000E8    -4.607717045540261  -7.234059511999762E1  
 1.854692500000000E8    -4.690829591777925  -7.293203965703590E1  
 1.869690000000000E8    -4.663352424584162  -7.331709577881458E1  
 1.884687500000000E8    -4.709443232482862  -7.365223325209446E1  
 1.899685000000000E8    -4.832938338829594  -7.421485757110473E1  
 1.914682500000000E8    -4.843189714092850  -7.448829952673700E1  
 1.929680000000000E8    -4.936556156353955  -7.504600330842412E1  
 1.944677500000000E8    -4.995776682084640  -7.437662680981603E1  
 1.959675000000000E8    -5.071991556884825  -7.510859940638596E1  
 1.974672500000000E8    -5.024473560408060  -7.553408193447451E1  
 1.989670000000000E8    -5.091100982340564  -7.603108647225767E1  
 2.004667500000000E8    -5.199585034611998  -7.642108007357886E1  
 2.019665000000000E8    -5.307421710175474  -7.704373654212417E1  
 2.034662500000000E8    -5.324115237807742  -7.739692786369191E1  
 2.049660000000000E8    -5.403893028421600  -7.766144428118723E1  
 2.064657500000000E8    -5.433142733790915  -7.780655011296612E1  
 2.079655000000000E8    -5.529133165185304  -7.827779805818281E1  
 2.094652500000000E8    -5.586052640347995  -7.822696359627696E1  
 2.109650000000000E8    -5.560522535905276  -7.871395376024505E1  
 2.124647500000000E8    -5.719484792425030  -7.877863384854783E1  
 2.139645000000000E8    -5.766205673633682  -7.916410809134915E1  
 2.154642500000000E8    -5.818919551072912  -7.902955100925580E1  
 2.169640000000000E8    -5.847170063779402  -7.920307775364513E1  
 2.184637500000000E8    -5.921495395587930  -8.041734240554567E1  
 2.199635000000000E8    -5.890174603082760  -7.999410105306802E1  
 2.214632500000000E8    -6.017553155620417  -8.050530722051681E1  
 2.229630000000000E8    -6.045170586530461  -8.081384015187632E1  
 2.244627500000000E8    -6.103410710559187  -8.067001366727975E1  
 2.259625000000000E8    -6.228838097660670  -8.109860219451377E1  
 2.274622500000000E8    -6.171754646386389  -8.139001694643049E1  
 2.289620000000000E8    -6.353212432258830  -8.189408960174448E1  
 2.304617500000000E8    -6.407167728061891  -8.193119612565714E1  
 2.319615000000000E8    -6.468215107885517  -8.252284475630373E1  
 2.334612500000000E8    -6.454949412070717  -8.276789888717175E1  
 2.349610000000000E8    -6.576470078254639  -8.231830255502607E1  
 2.364607500000000E8    -6.586059219959330  -8.290532610089069E1  
 2.379605000000000E8    -6.659557762516056  -8.330272591574304E1  
 2.394602500000000E8    -6.631293254638260  -8.306608868558439E1  
 2.409600000000000E8    -6.820820570331581  -8.330946484776347E1  
 2.424597500000000E8    -6.734941229714553  -8.344012437266946E1  
 2.439595000000000E8    -6.847043407130434  -8.394970828237932E1  
 2.454592500000000E8    -6.861351922501821  -8.419245001388521E1  
 2.469590000000000E8    -6.973865994841000  -8.437697087275154E1  
 2.484587500000000E8    -7.049820694465020  -8.439278514895227E1  
 2.499585000000000E8    -7.097695090436731  -8.442779288850872E1  
 2.514582500000000E8    -7.061657577411336  -8.507919276290107E1  
 2.529580000000000E8    -7.179744462454989  -8.536380846505372E1  
 2.544577500000000E8    -7.210173693692712  -8.553935237814767E1  
 2.559575000000000E8    -7.203444887074949  -8.581161639178748E1  
 2.574572500000000E8    -7.338223902996792  -8.642159526855119E1  
 2.589570000000000E8    -7.408532961029638  -8.626174548715632E1  
 2.604567500000000E8    -7.406546993301947  -8.630591593916729E1  
 2.619565000000000E8    -7.431648980859256  -8.656701256481200E1  
 2.634562500000000E8    -7.621286829215307  -8.683417407270655E1  
 2.649560000000000E8    -7.589984038026749  -8.665520934759510E1  
 2.664557500000000E8    -7.592290910442743  -8.685709843330341E1  
 2.679555000000000E8    -7.700898215455050  -8.703795266271349E1  
 2.694552500000000E8    -7.771183750855108  -8.731128155116866E1  
 2.709550000000000E8    -7.821828410724129  -8.743657909303390E1  
 2.724547500000000E8    -7.770012380680962  -8.724869892440840E1  
 2.739545000000000E8    -7.889990592421111  -8.713908052217614E1  
 2.754542500000000E8    -7.984210296440875  -8.713601633928369E1  
 2.769540000000000E8    -7.931094340757202  -8.753534084570705E1  
 2.784537500000000E8    -7.953512349036446  -8.737123667338919E1  
 2.799535000000000E8    -8.203491018821961  -8.737046461347836E1  
 2.814532500000000E8    -8.164662054451489  -8.791417448053863E1  
 2.829530000000000E8    -8.249748564833398  -8.843438030361854E1  
 2.844527500000000E8    -8.360651996248746  -8.888119635843229E1  
 2.859525000000000E8    -8.306758380954459  -8.773186057351558E1  
 2.874522500000000E8    -8.441345784908238  -8.790833271705537E1  
 2.889520000000000E8    -8.530787885189868  -8.824605528671295E1  
 2.904517500000000E8    -8.520185458142700  -8.897042143073023E1  
 2.919515000000000E8    -8.649412345116563  -8.899827337193999E1  
 2.934512500000000E8    -8.606468375247486  -8.849683477509477E1  
 2.949510000000000E8    -8.641228761272783  -8.927059870906601E1  
 2.964507500000000E8    -8.631165639064298  -8.941206787367550E1  
 2.979505000000000E8    -8.696518632911692  -8.893954628501636E1  
 2.994502500000000E8    -8.667991864514447  -8.926389209449954E1  
 3.009500000000000E8    -8.906887499935065  -9.003085779562989E1  
 3.024497500000000E8    -8.940502128119364  -8.943079931998855E1  
 3.039495000000000E8    -8.916461320145981  -9.004516890342433E1  
 3.054492500000000E8    -8.896776671134267  -8.925499185024012E1  
 3.069490000000000E8    -8.919699605450388  -8.915185730070147E1  
 3.084487500000000E8    -9.085279530779937  -8.932998566205326E1  
 3.099485000000000E8    -9.157682505909063  -8.977982548604685E1  
 3.114482500000000E8    -9.206620741734204  -8.992217170130837E1  
 3.129480000000000E8    -9.253998978311346  -9.018110720723563E1  
 3.144477500000000E8    -9.302681712459224  -8.966643433382981E1  
 3.159475000000000E8    -9.286616225716193  -9.039234158071770E1  
 3.174472500000000E8    -9.285494885365534  -8.938523308844930E1  
 3.189470000000000E8    -9.403075703632270  -9.021156158931908E1  
 3.204467500000000E8    -9.492982464013997  -8.977755010382683E1  
 3.219465000000000E8    -9.506167490228277  -8.995751699935664E1  
 3.234462500000000E8    -9.555132217361706  -8.989128146212380E1  
 3.249460000000000E8    -9.406678405393642  -9.151270938320970E1  
 3.264457500000000E8    -9.540061111014127  -9.061245506376390E1  
 3.279455000000000E8    -9.682394198841216  -9.070970731022518E1  
 3.294452500000000E8    -9.694501072281675  -9.049915985421684E1  
 3.309450000000000E8    -9.748292290181588  -9.056653648880270E1  
 3.324447500000000E8    -9.707168030858027  -9.042834759344837E1  
 3.339445000000000E8    -9.667621851842208  -9.031761308790941E1  
 3.354442500000000E8    -9.712120207205826  -8.997245953566343E1  
 3.369440000000000E8    -9.743848429697422  -9.063975312132969E1  
 3.384437500000000E8    -9.734364320093972  -9.011529378257532E1  
 3.399435000000000E8    -9.842215710384094  -8.973469961095432E1  
 3.414432500000000E8    -9.984403752417682  -9.036074078074945E1  
 3.429430000000000E8    -9.881500441403492  -8.991279658854516E1  
 3.444427500000000E8    -9.939072288237183  -9.013860332431148E1  
 3.459425000000000E8    -1.003009658178179E1  -8.982274331451335E1  
 3.474422500000000E8    -1.009684337364057E1  -8.931503968844427E1  
 3.489420000000000E8    -1.002210190524008E1  -8.984566080336333E1  
 3.504417500000000E8    -9.994634701463562  -9.042215653861838E1  
 3.519415000000000E8    -1.008707121933532E1  -9.010449237438807E1  
 3.534412500000000E8    -1.023534428782922E1  -9.020228875493147E1  
 3.549410000000000E8    -1.009633806179966E1  -8.983302166289752E1  
 3.564407500000000E8    -1.026572353417449E1  -9.004109932117929E1  
 3.579405000000000E8    -1.021398570100673E1  -8.986728773945075E1  
 3.594402500000000E8    -1.035048230094815E1  -9.006009902610118E1  
 3.609400000000000E8    -1.032393060398452E1  -9.016326106525906E1  
 3.624397500000000E8    -1.038047274285617E1  -9.009169841023518E1  
 3.639395000000000E8    -1.032012592377480E1  -9.001886500995492E1  
 3.654392500000000E8    -1.036301622141014E1  -9.032069593517292E1  
 3.669390000000000E8    -1.035045884178949E1  -9.042279898029169E1  
 3.684387500000000E8    -1.045307168250128E1  -9.028605655174255E1  
 3.699385000000000E8    -1.050492222109766E1  -9.042486014292230E1  
 3.714382500000000E8    -1.054601403176102E1  -9.029665067956296E1  
 3.729380000000000E8    -1.050340627171570E1  -8.999740782403015E1  
 3.744377500000000E8    -1.049775031138538E1  -8.983496998846934E1  
 3.759375000000000E8    -1.042189149396594E1  -9.060612587880664E1  
 3.774372500000000E8    -1.064116676323287E1  -9.072465711412499E1  
 3.789370000000000E8    -1.062683003095967E1  -9.033084617187163E1  
 3.804367500000000E8    -1.053027764000958E1  -9.023513208106616E1  
 3.819365000000000E8    -1.061273944638722E1  -8.950840495138856E1  
 3.834362500000000E8    -1.057779451979882E1  -8.976160350755139E1  
 3.849360000000000E8    -1.054786565839689E1  -8.988911212851217E1  
 3.864357500000000E8    -1.037171507278698E1  -8.980141634131084E1  
 3.879355000000000E8    -1.061109242743959E1  -9.092050115304130E1  
 3.894352500000000E8    -1.035231442967780E1  -8.994951166109544E1  
 3.909350000000000E8    -1.048045762437122E1  -8.976103807156876E1  
 3.924347500000000E8    -1.067122495349941E1  -8.963010412735255E1  
 3.939345000000000E8    -1.059418338018696E1  -8.926508380460480E1  
 3.954342500000000E8    -1.057035620810154E1  -8.924514378431167E1  
 3.969340000000000E8    -1.047168934683777E1  -8.956655329670130E1  
 3.984337500000000E8    -1.056152141163238E1  -8.924568087510230E1  
 3.999335000000000E8    -1.071972320711056E1  -8.905391783967821E1  
 4.014332500000000E8    -1.057014528010395E1  -8.860664194293018E1  
 4.029330000000000E8    -1.045290591586800E1  -8.893463258527285E1  
 4.044327500000000E8    -1.070570032440907E1  -8.828281047750667E1  
 4.059325000000000E8    -1.056718346486960E1  -8.862507868247296E1  
 4.074322500000000E8    -1.064897731147650E1  -8.846750301523230E1  
 4.089320000000000E8    -1.074564433715947E1  -8.879735552605324E1  
 4.104317500000000E8    -1.072578319996073E1  -8.818784536350819E1  
 4.119315000000000E8    -1.061339235331857E1  -8.881775940547460E1  
 4.134312500000000E8    -1.066691447200636E1  -8.797934879449633E1  
 4.149310000000000E8    -1.069668706567881E1  -8.941098731393500E1  
 4.164307500000000E8    -1.072892536407348E1  -8.823103101638253E1  
 4.179305000000000E8    -1.068471362682317E1  -8.794898260803483E1  
 4.194302500000000E8    -1.063928850310351E1  -8.769181588890675E1  
 4.209300000000000E8    -1.059887269954463E1  -8.771643895693478E1  
 4.224297500000000E8    -1.070019917590077E1  -8.729565119025837E1  
 4.239295000000000E8    -1.075108259770942E1  -8.753788134890279E1  
 4.254292500000000E8    -1.060746591451976E1  -8.786520542275861E1  
 4.269290000000000E8    -1.065260608705611E1  -8.872969399382158E1  
 4.284287500000000E8    -1.063890946006504E1  -8.658542157759212E1  
 4.299285000000000E8    -1.060995525425632E1  -8.738773910541005E1  
 4.314282500000000E8    -1.061582735895613E1  -8.831006696837488E1  
 4.329280000000000E8    -1.071007122141016E1  -8.712310147447967E1  
 4.344277500000000E8    -1.056525491235090E1  -8.731579740087500E1  
 4.359275000000000E8    -1.068023201884894E1  -8.781221506111010E1  
 4.374272500000000E8    -1.069378091190200E1  -8.841502611725888E1  
 4.389270000000000E8    -1.075161480549784E1  -8.856694016768910E1  
